Comment,Format=CSV; Hex=CoderUpper; BreakOutBytes=False; PEC=True; IncludeBlockLength=True [DO NOT REMOVE THIS LINE IF YOU WANT TO IMPORT USING A FUSION TOOL]
Comment,"PEC byte is calculated on all message bytes, including addresses and Read/Write bit."
Comment,"SMBus Fields are Request,Address,Command,Data with PEC byte"
Comment,"For reads, the last field is what is expected back from the device"
Comment,Creator: Texas Instruments Fusion Digital Power Designer v1.8.353
Comment,"Date: Wednesday, January 09, 2019"
Comment,Verify_Compatible_Program: True
Comment,Perform_Read_Back_Validation: True
Comment,Reset_Device_When_Done: True
Comment,Pause_For_Program_Startup_After: True
Comment,Verify_Program_After: True
Comment,Clear_Flash_Logs_After: True
Comment,Program Flash Checksum Mode: CalculateAndWrite
Comment,"Verifying DEVICE_ID matches expected firmware [""UCD90160|2.3.4.0000|110603""]"
Comment,BlockRead,0x35,0xFD,0x1B55434439303136307C322E332E342E303030307C31313036303300
BlockRead,0x35,0xFD,0x1B55434439303136307C322E332E342E303030307C31313036303300
Comment,Clearing data flash write protect bit; any flash logging will be disabled until device reset ...
BlockWrite,0x35,0xE2,0x050400000104D1
BlockWrite,0x35,0xE3,0x04000088201C
Comment,Erasing data flash ...
BlockWrite,0x35,0xE2,0x050414000104EF
BlockWrite,0x35,0xE3,0x0400000100F7
Pause,25,Pausing 25.00 ms for Flash erase time
Comment,Writing data flash in 4 byte chunks ...
BlockWrite,0x35,0xE2,0x0502000001049B
BlockWrite,0x35,0xE3,0x04064D46521D
Pause,0.2,Pausing 0.20 ms for ROM write hold time
BlockWrite,0x35,0xE2,0x0502010001048D
BlockWrite,0x35,0xE3,0x045F4944007F
Pause,0.2,Pausing 0.20 ms for ROM write hold time
BlockWrite,0x35,0xE2,0x050202000104B7
BlockWrite,0x35,0xE3,0x0400000000E2
Pause,0.2,Pausing 0.20 ms for ROM write hold time
BlockWrite,0x35,0xE2,0x050203000104A1
BlockWrite,0x35,0xE3,0x0400000000E2
Pause,0.2,Pausing 0.20 ms for ROM write hold time
BlockWrite,0x35,0xE2,0x050204000104C3
BlockWrite,0x35,0xE3,0x0400000009DD
Pause,0.2,Pausing 0.20 ms for ROM write hold time
BlockWrite,0x35,0xE2,0x050205000104D5
BlockWrite,0x35,0xE3,0x044D46525FC0
Pause,0.2,Pausing 0.20 ms for ROM write hold time
BlockWrite,0x35,0xE2,0x050206000104EF
BlockWrite,0x35,0xE3,0x044D4F444595
Pause,0.2,Pausing 0.20 ms for ROM write hold time
BlockWrite,0x35,0xE2,0x050207000104F9
BlockWrite,0x35,0xE3,0x044C00000091
Pause,0.2,Pausing 0.20 ms for ROM write hold time
BlockWrite,0x35,0xE2,0x0502080001042B
BlockWrite,0x35,0xE3,0x040C4D465281
Pause,0.2,Pausing 0.20 ms for ROM write hold time
BlockWrite,0x35,0xE2,0x0502090001043D
BlockWrite,0x35,0xE3,0x045F52455681
Pause,0.2,Pausing 0.20 ms for ROM write hold time
BlockWrite,0x35,0xE2,0x05020A00010407
BlockWrite,0x35,0xE3,0x044953494F4A
Pause,0.2,Pausing 0.20 ms for ROM write hold time
BlockWrite,0x35,0xE2,0x05020B00010411
BlockWrite,0x35,0xE3,0x044E0C4D4620
Pause,0.2,Pausing 0.20 ms for ROM write hold time
BlockWrite,0x35,0xE2,0x05020C00010473
BlockWrite,0x35,0xE3,0x04525F4C4F1C
Pause,0.2,Pausing 0.20 ms for ROM write hold time
BlockWrite,0x35,0xE2,0x05020D00010465
BlockWrite,0x35,0xE3,0x04434154490E
Pause,0.2,Pausing 0.20 ms for ROM write hold time
BlockWrite,0x35,0xE2,0x05020E0001045F
BlockWrite,0x35,0xE3,0x044F4E0659F7
Pause,0.2,Pausing 0.20 ms for ROM write hold time
BlockWrite,0x35,0xE2,0x05020F00010449
BlockWrite,0x35,0xE3,0x04594D4D44C6
Pause,0.2,Pausing 0.20 ms for ROM write hold time
BlockWrite,0x35,0xE2,0x050210000104FC
BlockWrite,0x35,0xE3,0x044406303035
Pause,0.2,Pausing 0.20 ms for ROM write hold time
BlockWrite,0x35,0xE2,0x050211000104EA
BlockWrite,0x35,0xE3,0x0430303030C3
Pause,0.2,Pausing 0.20 ms for ROM write hold time
BlockWrite,0x35,0xE2,0x050212000104D0
BlockWrite,0x35,0xE3,0x0400000000E2
Pause,0.2,Pausing 0.20 ms for ROM write hold time
BlockWrite,0x35,0xE2,0x050213000104C6
BlockWrite,0x35,0xE3,0x0400000000E2
Pause,0.2,Pausing 0.20 ms for ROM write hold time
BlockWrite,0x35,0xE2,0x050214000104A4
BlockWrite,0x35,0xE3,0x04090041000A
Pause,0.2,Pausing 0.20 ms for ROM write hold time
BlockWrite,0x35,0xE2,0x050215000104B2
BlockWrite,0x35,0xE3,0x0400000000E2
Pause,0.2,Pausing 0.20 ms for ROM write hold time
BlockWrite,0x35,0xE2,0x05021600010488
BlockWrite,0x35,0xE3,0x0400000000E2
Pause,0.2,Pausing 0.20 ms for ROM write hold time
BlockWrite,0x35,0xE2,0x0502170001049E
BlockWrite,0x35,0xE3,0x040000FFFFC6
Pause,0.2,Pausing 0.20 ms for ROM write hold time
BlockWrite,0x35,0xE2,0x0502190001045A
BlockWrite,0x35,0xE3,0x04FFFF3B3BD7
Pause,0.2,Pausing 0.20 ms for ROM write hold time
BlockWrite,0x35,0xE2,0x05021A00010460
BlockWrite,0x35,0xE3,0x043B3B3B3B03
Pause,0.2,Pausing 0.20 ms for ROM write hold time
BlockWrite,0x35,0xE2,0x05021B00010476
BlockWrite,0x35,0xE3,0x043B3B3BFF51
Pause,0.2,Pausing 0.20 ms for ROM write hold time
BlockWrite,0x35,0xE2,0x05021D00010402
BlockWrite,0x35,0xE3,0x04FFFF000018
Pause,0.2,Pausing 0.20 ms for ROM write hold time
BlockWrite,0x35,0xE2,0x05021E00010438
BlockWrite,0x35,0xE3,0x0400000000E2
Pause,0.2,Pausing 0.20 ms for ROM write hold time
BlockWrite,0x35,0xE2,0x05021F0001042E
BlockWrite,0x35,0xE3,0x0400000000E2
Pause,0.2,Pausing 0.20 ms for ROM write hold time
BlockWrite,0x35,0xE2,0x05022000010455
BlockWrite,0x35,0xE3,0x0400000000E2
Pause,0.2,Pausing 0.20 ms for ROM write hold time
BlockWrite,0x35,0xE2,0x05022100010443
BlockWrite,0x35,0xE3,0x0400000000E2
Pause,0.2,Pausing 0.20 ms for ROM write hold time
BlockWrite,0x35,0xE2,0x05022200010479
BlockWrite,0x35,0xE3,0x0400000000E2
Pause,0.2,Pausing 0.20 ms for ROM write hold time
BlockWrite,0x35,0xE2,0x0502230001046F
BlockWrite,0x35,0xE3,0x0400000000E2
Pause,0.2,Pausing 0.20 ms for ROM write hold time
BlockWrite,0x35,0xE2,0x0502240001040D
BlockWrite,0x35,0xE3,0x0400000000E2
Pause,0.2,Pausing 0.20 ms for ROM write hold time
BlockWrite,0x35,0xE2,0x0502250001041B
BlockWrite,0x35,0xE3,0x0400000000E2
Pause,0.2,Pausing 0.20 ms for ROM write hold time
BlockWrite,0x35,0xE2,0x05022600010421
BlockWrite,0x35,0xE3,0x0400000000E2
Pause,0.2,Pausing 0.20 ms for ROM write hold time
BlockWrite,0x35,0xE2,0x05022700010437
BlockWrite,0x35,0xE3,0x0400000000E2
Pause,0.2,Pausing 0.20 ms for ROM write hold time
BlockWrite,0x35,0xE2,0x050228000104E5
BlockWrite,0x35,0xE3,0x0400000000E2
Pause,0.2,Pausing 0.20 ms for ROM write hold time
BlockWrite,0x35,0xE2,0x050229000104F3
BlockWrite,0x35,0xE3,0x0400000000E2
Pause,0.2,Pausing 0.20 ms for ROM write hold time
BlockWrite,0x35,0xE2,0x05022A000104C9
BlockWrite,0x35,0xE3,0x0400000000E2
Pause,0.2,Pausing 0.20 ms for ROM write hold time
BlockWrite,0x35,0xE2,0x05022B000104DF
BlockWrite,0x35,0xE3,0x0400000000E2
Pause,0.2,Pausing 0.20 ms for ROM write hold time
BlockWrite,0x35,0xE2,0x05022C000104BD
BlockWrite,0x35,0xE3,0x0400000000E2
Pause,0.2,Pausing 0.20 ms for ROM write hold time
BlockWrite,0x35,0xE2,0x05022D000104AB
BlockWrite,0x35,0xE3,0x0400000000E2
Pause,0.2,Pausing 0.20 ms for ROM write hold time
BlockWrite,0x35,0xE2,0x05022E00010491
BlockWrite,0x35,0xE3,0x0400000000E2
Pause,0.2,Pausing 0.20 ms for ROM write hold time
BlockWrite,0x35,0xE2,0x05022F00010487
BlockWrite,0x35,0xE3,0x0400000000E2
Pause,0.2,Pausing 0.20 ms for ROM write hold time
BlockWrite,0x35,0xE2,0x05023000010432
BlockWrite,0x35,0xE3,0x0400000000E2
Pause,0.2,Pausing 0.20 ms for ROM write hold time
BlockWrite,0x35,0xE2,0x05023100010424
BlockWrite,0x35,0xE3,0x0400000000E2
Pause,0.2,Pausing 0.20 ms for ROM write hold time
BlockWrite,0x35,0xE2,0x0502320001041E
BlockWrite,0x35,0xE3,0x0400000000E2
Pause,0.2,Pausing 0.20 ms for ROM write hold time
BlockWrite,0x35,0xE2,0x05023300010408
BlockWrite,0x35,0xE3,0x0400000000E2
Pause,0.2,Pausing 0.20 ms for ROM write hold time
BlockWrite,0x35,0xE2,0x0502340001046A
BlockWrite,0x35,0xE3,0x0400000000E2
Pause,0.2,Pausing 0.20 ms for ROM write hold time
BlockWrite,0x35,0xE2,0x0502350001047C
BlockWrite,0x35,0xE3,0x0400000000E2
Pause,0.2,Pausing 0.20 ms for ROM write hold time
BlockWrite,0x35,0xE2,0x05023600010446
BlockWrite,0x35,0xE3,0x0400000000E2
Pause,0.2,Pausing 0.20 ms for ROM write hold time
BlockWrite,0x35,0xE2,0x05023700010450
BlockWrite,0x35,0xE3,0x0400000000E2
Pause,0.2,Pausing 0.20 ms for ROM write hold time
BlockWrite,0x35,0xE2,0x05023800010482
BlockWrite,0x35,0xE3,0x0400000000E2
Pause,0.2,Pausing 0.20 ms for ROM write hold time
BlockWrite,0x35,0xE2,0x05023900010494
BlockWrite,0x35,0xE3,0x0400000000E2
Pause,0.2,Pausing 0.20 ms for ROM write hold time
BlockWrite,0x35,0xE2,0x05023A000104AE
BlockWrite,0x35,0xE3,0x0400000000E2
Pause,0.2,Pausing 0.20 ms for ROM write hold time
BlockWrite,0x35,0xE2,0x05023B000104B8
BlockWrite,0x35,0xE3,0x0400000000E2
Pause,0.2,Pausing 0.20 ms for ROM write hold time
BlockWrite,0x35,0xE2,0x05023C000104DA
BlockWrite,0x35,0xE3,0x0400000000E2
Pause,0.2,Pausing 0.20 ms for ROM write hold time
BlockWrite,0x35,0xE2,0x05023D000104CC
BlockWrite,0x35,0xE3,0x0400000000E2
Pause,0.2,Pausing 0.20 ms for ROM write hold time
BlockWrite,0x35,0xE2,0x05023E000104F6
BlockWrite,0x35,0xE3,0x0400000000E2
Pause,0.2,Pausing 0.20 ms for ROM write hold time
BlockWrite,0x35,0xE2,0x05023F000104E0
BlockWrite,0x35,0xE3,0x0400000000E2
Pause,0.2,Pausing 0.20 ms for ROM write hold time
BlockWrite,0x35,0xE2,0x05024000010400
BlockWrite,0x35,0xE3,0x0400000000E2
Pause,0.2,Pausing 0.20 ms for ROM write hold time
BlockWrite,0x35,0xE2,0x05024100010416
BlockWrite,0x35,0xE3,0x04B66E0000E7
Pause,0.2,Pausing 0.20 ms for ROM write hold time
BlockWrite,0x35,0xE2,0x0502420001042C
BlockWrite,0x35,0xE3,0x0400000000E2
Pause,0.2,Pausing 0.20 ms for ROM write hold time
BlockWrite,0x35,0xE2,0x0502430001043A
BlockWrite,0x35,0xE3,0x0400000000E2
Pause,0.2,Pausing 0.20 ms for ROM write hold time
BlockWrite,0x35,0xE2,0x05024400010458
BlockWrite,0x35,0xE3,0x0400000000E2
Pause,0.2,Pausing 0.20 ms for ROM write hold time
BlockWrite,0x35,0xE2,0x0502450001044E
BlockWrite,0x35,0xE3,0x04E0200000C5
Pause,0.2,Pausing 0.20 ms for ROM write hold time
BlockWrite,0x35,0xE2,0x05024600010474
BlockWrite,0x35,0xE3,0x0400000000E2
Pause,0.2,Pausing 0.20 ms for ROM write hold time
BlockWrite,0x35,0xE2,0x05024700010462
BlockWrite,0x35,0xE3,0x0400000000E2
Pause,0.2,Pausing 0.20 ms for ROM write hold time
BlockWrite,0x35,0xE2,0x050248000104B0
BlockWrite,0x35,0xE3,0x0400000000E2
Pause,0.2,Pausing 0.20 ms for ROM write hold time
BlockWrite,0x35,0xE2,0x050249000104A6
BlockWrite,0x35,0xE3,0x0480800000D8
Pause,0.2,Pausing 0.20 ms for ROM write hold time
BlockWrite,0x35,0xE2,0x05024A0001049C
BlockWrite,0x35,0xE3,0x0400000000E2
Pause,0.2,Pausing 0.20 ms for ROM write hold time
BlockWrite,0x35,0xE2,0x05024B0001048A
BlockWrite,0x35,0xE3,0x0400000000E2
Pause,0.2,Pausing 0.20 ms for ROM write hold time
BlockWrite,0x35,0xE2,0x05024C000104E8
BlockWrite,0x35,0xE3,0x0400000000E2
Pause,0.2,Pausing 0.20 ms for ROM write hold time
BlockWrite,0x35,0xE2,0x05024D000104FE
BlockWrite,0x35,0xE3,0x0400000000E2
Pause,0.2,Pausing 0.20 ms for ROM write hold time
BlockWrite,0x35,0xE2,0x05024E000104C4
BlockWrite,0x35,0xE3,0x0400000000E2
Pause,0.2,Pausing 0.20 ms for ROM write hold time
BlockWrite,0x35,0xE2,0x05024F000104D2
BlockWrite,0x35,0xE3,0x0400000000E2
Pause,0.2,Pausing 0.20 ms for ROM write hold time
BlockWrite,0x35,0xE2,0x05025000010467
BlockWrite,0x35,0xE3,0x0400000000E2
Pause,0.2,Pausing 0.20 ms for ROM write hold time
BlockWrite,0x35,0xE2,0x05025100010471
BlockWrite,0x35,0xE3,0x0400000000E2
Pause,0.2,Pausing 0.20 ms for ROM write hold time
BlockWrite,0x35,0xE2,0x0502520001044B
BlockWrite,0x35,0xE3,0x0400000000E2
Pause,0.2,Pausing 0.20 ms for ROM write hold time
BlockWrite,0x35,0xE2,0x0502530001045D
BlockWrite,0x35,0xE3,0x0400000000E2
Pause,0.2,Pausing 0.20 ms for ROM write hold time
BlockWrite,0x35,0xE2,0x0502540001043F
BlockWrite,0x35,0xE3,0x0400000000E2
Pause,0.2,Pausing 0.20 ms for ROM write hold time
BlockWrite,0x35,0xE2,0x05025500010429
BlockWrite,0x35,0xE3,0x0483868683D7
Pause,0.2,Pausing 0.20 ms for ROM write hold time
BlockWrite,0x35,0xE2,0x05025600010413
BlockWrite,0x35,0xE3,0x0400000000E2
Pause,0.2,Pausing 0.20 ms for ROM write hold time
BlockWrite,0x35,0xE2,0x05025700010405
BlockWrite,0x35,0xE3,0x0400000000E2
Pause,0.2,Pausing 0.20 ms for ROM write hold time
BlockWrite,0x35,0xE2,0x050258000104D7
BlockWrite,0x35,0xE3,0x0400000000E2
Pause,0.2,Pausing 0.20 ms for ROM write hold time
BlockWrite,0x35,0xE2,0x050259000104C1
BlockWrite,0x35,0xE3,0x0400000000E2
Pause,0.2,Pausing 0.20 ms for ROM write hold time
BlockWrite,0x35,0xE2,0x05025A000104FB
BlockWrite,0x35,0xE3,0x0400000000E2
Pause,0.2,Pausing 0.20 ms for ROM write hold time
BlockWrite,0x35,0xE2,0x05025B000104ED
BlockWrite,0x35,0xE3,0x0400000000E2
Pause,0.2,Pausing 0.20 ms for ROM write hold time
BlockWrite,0x35,0xE2,0x05025C0001048F
BlockWrite,0x35,0xE3,0x0400000000E2
Pause,0.2,Pausing 0.20 ms for ROM write hold time
BlockWrite,0x35,0xE2,0x05025D00010499
BlockWrite,0x35,0xE3,0x040A0000007E
Pause,0.2,Pausing 0.20 ms for ROM write hold time
BlockWrite,0x35,0xE2,0x05025E000104A3
BlockWrite,0x35,0xE3,0x0400000000E2
Pause,0.2,Pausing 0.20 ms for ROM write hold time
BlockWrite,0x35,0xE2,0x05025F000104B5
BlockWrite,0x35,0xE3,0x0400000000E2
Pause,0.2,Pausing 0.20 ms for ROM write hold time
BlockWrite,0x35,0xE2,0x050260000104CE
BlockWrite,0x35,0xE3,0x0400000000E2
Pause,0.2,Pausing 0.20 ms for ROM write hold time
BlockWrite,0x35,0xE2,0x050261000104D8
BlockWrite,0x35,0xE3,0x0400000000E2
Pause,0.2,Pausing 0.20 ms for ROM write hold time
BlockWrite,0x35,0xE2,0x050262000104E2
BlockWrite,0x35,0xE3,0x0400000000E2
Pause,0.2,Pausing 0.20 ms for ROM write hold time
BlockWrite,0x35,0xE2,0x050263000104F4
BlockWrite,0x35,0xE3,0x0400000000E2
Pause,0.2,Pausing 0.20 ms for ROM write hold time
BlockWrite,0x35,0xE2,0x05026400010496
BlockWrite,0x35,0xE3,0x0400000000E2
Pause,0.2,Pausing 0.20 ms for ROM write hold time
BlockWrite,0x35,0xE2,0x05026500010480
BlockWrite,0x35,0xE3,0x0400000000E2
Pause,0.2,Pausing 0.20 ms for ROM write hold time
BlockWrite,0x35,0xE2,0x050266000104BA
BlockWrite,0x35,0xE3,0x0400000000E2
Pause,0.2,Pausing 0.20 ms for ROM write hold time
BlockWrite,0x35,0xE2,0x050267000104AC
BlockWrite,0x35,0xE3,0x0400000000E2
Pause,0.2,Pausing 0.20 ms for ROM write hold time
BlockWrite,0x35,0xE2,0x0502680001047E
BlockWrite,0x35,0xE3,0x0400000000E2
Pause,0.2,Pausing 0.20 ms for ROM write hold time
BlockWrite,0x35,0xE2,0x05026900010468
BlockWrite,0x35,0xE3,0x0400000000E2
Pause,0.2,Pausing 0.20 ms for ROM write hold time
BlockWrite,0x35,0xE2,0x05026A00010452
BlockWrite,0x35,0xE3,0x0400000000E2
Pause,0.2,Pausing 0.20 ms for ROM write hold time
BlockWrite,0x35,0xE2,0x05026B00010444
BlockWrite,0x35,0xE3,0x0400000000E2
Pause,0.2,Pausing 0.20 ms for ROM write hold time
BlockWrite,0x35,0xE2,0x05026C00010426
BlockWrite,0x35,0xE3,0x0400000000E2
Pause,0.2,Pausing 0.20 ms for ROM write hold time
BlockWrite,0x35,0xE2,0x05026D00010430
BlockWrite,0x35,0xE3,0x040102030401
Pause,0.2,Pausing 0.20 ms for ROM write hold time
BlockWrite,0x35,0xE2,0x05026E0001040A
BlockWrite,0x35,0xE3,0x040506070882
Pause,0.2,Pausing 0.20 ms for ROM write hold time
BlockWrite,0x35,0xE2,0x05026F0001041C
BlockWrite,0x35,0xE3,0x040900000044
Pause,0.2,Pausing 0.20 ms for ROM write hold time
BlockWrite,0x35,0xE2,0x050270000104A9
BlockWrite,0x35,0xE3,0x0400000000E2
Pause,0.2,Pausing 0.20 ms for ROM write hold time
BlockWrite,0x35,0xE2,0x050271000104BF
BlockWrite,0x35,0xE3,0x0414141414BB
Pause,0.2,Pausing 0.20 ms for ROM write hold time
BlockWrite,0x35,0xE2,0x05027200010485
BlockWrite,0x35,0xE3,0x0414141414BB
Pause,0.2,Pausing 0.20 ms for ROM write hold time
BlockWrite,0x35,0xE2,0x05027300010493
BlockWrite,0x35,0xE3,0x0414000000DD
Pause,0.2,Pausing 0.20 ms for ROM write hold time
BlockWrite,0x35,0xE2,0x050274000104F1
BlockWrite,0x35,0xE3,0x0400000000E2
Pause,0.2,Pausing 0.20 ms for ROM write hold time
BlockWrite,0x35,0xE2,0x050275000104E7
BlockWrite,0x35,0xE3,0x04F2F3F4F690
Pause,0.2,Pausing 0.20 ms for ROM write hold time
BlockWrite,0x35,0xE2,0x050276000104DD
BlockWrite,0x35,0xE3,0x04F4F4F4F4FC
Pause,0.2,Pausing 0.20 ms for ROM write hold time
BlockWrite,0x35,0xE2,0x050277000104CB
BlockWrite,0x35,0xE3,0x04F4000000B9
Pause,0.2,Pausing 0.20 ms for ROM write hold time
BlockWrite,0x35,0xE2,0x05027800010419
BlockWrite,0x35,0xE3,0x0400000000E2
Pause,0.2,Pausing 0.20 ms for ROM write hold time
BlockWrite,0x35,0xE2,0x0502790001040F
BlockWrite,0x35,0xE3,0x0400000000E2
Pause,0.2,Pausing 0.20 ms for ROM write hold time
BlockWrite,0x35,0xE2,0x05027A00010435
BlockWrite,0x35,0xE3,0x0400000000E2
Pause,0.2,Pausing 0.20 ms for ROM write hold time
BlockWrite,0x35,0xE2,0x05027B00010423
BlockWrite,0x35,0xE3,0x0400000000E2
Pause,0.2,Pausing 0.20 ms for ROM write hold time
BlockWrite,0x35,0xE2,0x05027C00010441
BlockWrite,0x35,0xE3,0x0400000000E2
Pause,0.2,Pausing 0.20 ms for ROM write hold time
BlockWrite,0x35,0xE2,0x05027D00010457
BlockWrite,0x35,0xE3,0x0400000000E2
Pause,0.2,Pausing 0.20 ms for ROM write hold time
BlockWrite,0x35,0xE2,0x05027E0001046D
BlockWrite,0x35,0xE3,0x0400000000E2
Pause,0.2,Pausing 0.20 ms for ROM write hold time
BlockWrite,0x35,0xE2,0x05027F0001047B
BlockWrite,0x35,0xE3,0x0400000000E2
Pause,0.2,Pausing 0.20 ms for ROM write hold time
BlockWrite,0x35,0xE2,0x050280000104AA
BlockWrite,0x35,0xE3,0x0400000000E2
Pause,0.2,Pausing 0.20 ms for ROM write hold time
BlockWrite,0x35,0xE2,0x050281000104BC
BlockWrite,0x35,0xE3,0x0400000000E2
Pause,0.2,Pausing 0.20 ms for ROM write hold time
BlockWrite,0x35,0xE2,0x05028200010486
BlockWrite,0x35,0xE3,0x0400000000E2
Pause,0.2,Pausing 0.20 ms for ROM write hold time
BlockWrite,0x35,0xE2,0x05028300010490
BlockWrite,0x35,0xE3,0x0400000000E2
Pause,0.2,Pausing 0.20 ms for ROM write hold time
BlockWrite,0x35,0xE2,0x050284000104F2
BlockWrite,0x35,0xE3,0x0400000000E2
Pause,0.2,Pausing 0.20 ms for ROM write hold time
BlockWrite,0x35,0xE2,0x050285000104E4
BlockWrite,0x35,0xE3,0x0400000000E2
Pause,0.2,Pausing 0.20 ms for ROM write hold time
BlockWrite,0x35,0xE2,0x050286000104DE
BlockWrite,0x35,0xE3,0x0400000000E2
Pause,0.2,Pausing 0.20 ms for ROM write hold time
BlockWrite,0x35,0xE2,0x050287000104C8
BlockWrite,0x35,0xE3,0x0400000000E2
Pause,0.2,Pausing 0.20 ms for ROM write hold time
BlockWrite,0x35,0xE2,0x0502880001041A
BlockWrite,0x35,0xE3,0x0400000000E2
Pause,0.2,Pausing 0.20 ms for ROM write hold time
BlockWrite,0x35,0xE2,0x0502890001040C
BlockWrite,0x35,0xE3,0x0400000000E2
Pause,0.2,Pausing 0.20 ms for ROM write hold time
BlockWrite,0x35,0xE2,0x05028A00010436
BlockWrite,0x35,0xE3,0x0400000000E2
Pause,0.2,Pausing 0.20 ms for ROM write hold time
BlockWrite,0x35,0xE2,0x05028B00010420
BlockWrite,0x35,0xE3,0x0400000000E2
Pause,0.2,Pausing 0.20 ms for ROM write hold time
BlockWrite,0x35,0xE2,0x05028C00010442
BlockWrite,0x35,0xE3,0x0400000000E2
Pause,0.2,Pausing 0.20 ms for ROM write hold time
BlockWrite,0x35,0xE2,0x05028D00010454
BlockWrite,0x35,0xE3,0x04366630F6B2
Pause,0.2,Pausing 0.20 ms for ROM write hold time
BlockWrite,0x35,0xE2,0x05028E0001046E
BlockWrite,0x35,0xE3,0x042CE128CD0A
Pause,0.2,Pausing 0.20 ms for ROM write hold time
BlockWrite,0x35,0xE2,0x05028F00010478
BlockWrite,0x35,0xE3,0x0400000000E2
Pause,0.2,Pausing 0.20 ms for ROM write hold time
BlockWrite,0x35,0xE2,0x050290000104CD
BlockWrite,0x35,0xE3,0x0400002CE119
Pause,0.2,Pausing 0.20 ms for ROM write hold time
BlockWrite,0x35,0xE2,0x050291000104DB
BlockWrite,0x35,0xE3,0x0400000000E2
Pause,0.2,Pausing 0.20 ms for ROM write hold time
BlockWrite,0x35,0xE2,0x050292000104E1
BlockWrite,0x35,0xE3,0x0400000000E2
Pause,0.2,Pausing 0.20 ms for ROM write hold time
BlockWrite,0x35,0xE2,0x050293000104F7
BlockWrite,0x35,0xE3,0x0400000000E2
Pause,0.2,Pausing 0.20 ms for ROM write hold time
BlockWrite,0x35,0xE2,0x05029400010495
BlockWrite,0x35,0xE3,0x0400000000E2
Pause,0.2,Pausing 0.20 ms for ROM write hold time
BlockWrite,0x35,0xE2,0x05029500010483
BlockWrite,0x35,0xE3,0x04399A33D72E
Pause,0.2,Pausing 0.20 ms for ROM write hold time
BlockWrite,0x35,0xE2,0x050296000104B9
BlockWrite,0x35,0xE3,0x042F852B3395
Pause,0.2,Pausing 0.20 ms for ROM write hold time
BlockWrite,0x35,0xE2,0x050297000104AF
BlockWrite,0x35,0xE3,0x0400000000E2
Pause,0.2,Pausing 0.20 ms for ROM write hold time
BlockWrite,0x35,0xE2,0x0502980001047D
BlockWrite,0x35,0xE3,0x0400002F851D
Pause,0.2,Pausing 0.20 ms for ROM write hold time
BlockWrite,0x35,0xE2,0x0502990001046B
BlockWrite,0x35,0xE3,0x0400000000E2
Pause,0.2,Pausing 0.20 ms for ROM write hold time
BlockWrite,0x35,0xE2,0x05029A00010451
BlockWrite,0x35,0xE3,0x0400000000E2
Pause,0.2,Pausing 0.20 ms for ROM write hold time
BlockWrite,0x35,0xE2,0x05029B00010447
BlockWrite,0x35,0xE3,0x0400000000E2
Pause,0.2,Pausing 0.20 ms for ROM write hold time
BlockWrite,0x35,0xE2,0x05029C00010425
BlockWrite,0x35,0xE3,0x0400000000E2
Pause,0.2,Pausing 0.20 ms for ROM write hold time
BlockWrite,0x35,0xE2,0x05029D00010433
BlockWrite,0x35,0xE3,0x0400000000E2
Pause,0.2,Pausing 0.20 ms for ROM write hold time
BlockWrite,0x35,0xE2,0x05029E00010409
BlockWrite,0x35,0xE3,0x0400000000E2
Pause,0.2,Pausing 0.20 ms for ROM write hold time
BlockWrite,0x35,0xE2,0x05029F0001041F
BlockWrite,0x35,0xE3,0x0400000000E2
Pause,0.2,Pausing 0.20 ms for ROM write hold time
BlockWrite,0x35,0xE2,0x0502A000010464
BlockWrite,0x35,0xE3,0x0400000000E2
Pause,0.2,Pausing 0.20 ms for ROM write hold time
BlockWrite,0x35,0xE2,0x0502A100010472
BlockWrite,0x35,0xE3,0x0400000000E2
Pause,0.2,Pausing 0.20 ms for ROM write hold time
BlockWrite,0x35,0xE2,0x0502A200010448
BlockWrite,0x35,0xE3,0x0400000000E2
Pause,0.2,Pausing 0.20 ms for ROM write hold time
BlockWrite,0x35,0xE2,0x0502A30001045E
BlockWrite,0x35,0xE3,0x0400000000E2
Pause,0.2,Pausing 0.20 ms for ROM write hold time
BlockWrite,0x35,0xE2,0x0502A40001043C
BlockWrite,0x35,0xE3,0x0400000000E2
Pause,0.2,Pausing 0.20 ms for ROM write hold time
BlockWrite,0x35,0xE2,0x0502A50001042A
BlockWrite,0x35,0xE3,0x047FFF7FFFBB
Pause,0.2,Pausing 0.20 ms for ROM write hold time
BlockWrite,0x35,0xE2,0x0502A600010410
BlockWrite,0x35,0xE3,0x047FFF7FFFBB
Pause,0.2,Pausing 0.20 ms for ROM write hold time
BlockWrite,0x35,0xE2,0x0502A700010406
BlockWrite,0x35,0xE3,0x047FFF7FFFBB
Pause,0.2,Pausing 0.20 ms for ROM write hold time
BlockWrite,0x35,0xE2,0x0502A8000104D4
BlockWrite,0x35,0xE3,0x047FFF7FFFBB
Pause,0.2,Pausing 0.20 ms for ROM write hold time
BlockWrite,0x35,0xE2,0x0502A9000104C2
BlockWrite,0x35,0xE3,0x047FFF000029
Pause,0.2,Pausing 0.20 ms for ROM write hold time
BlockWrite,0x35,0xE2,0x0502AA000104F8
BlockWrite,0x35,0xE3,0x0400000000E2
Pause,0.2,Pausing 0.20 ms for ROM write hold time
BlockWrite,0x35,0xE2,0x0502AB000104EE
BlockWrite,0x35,0xE3,0x0400000000E2
Pause,0.2,Pausing 0.20 ms for ROM write hold time
BlockWrite,0x35,0xE2,0x0502AC0001048C
BlockWrite,0x35,0xE3,0x0400000000E2
Pause,0.2,Pausing 0.20 ms for ROM write hold time
BlockWrite,0x35,0xE2,0x0502AD0001049A
BlockWrite,0x35,0xE3,0x0400000000E2
Pause,0.2,Pausing 0.20 ms for ROM write hold time
BlockWrite,0x35,0xE2,0x0502AE000104A0
BlockWrite,0x35,0xE3,0x0400000000E2
Pause,0.2,Pausing 0.20 ms for ROM write hold time
BlockWrite,0x35,0xE2,0x0502AF000104B6
BlockWrite,0x35,0xE3,0x0400000000E2
Pause,0.2,Pausing 0.20 ms for ROM write hold time
BlockWrite,0x35,0xE2,0x0502B000010403
BlockWrite,0x35,0xE3,0x0400000000E2
Pause,0.2,Pausing 0.20 ms for ROM write hold time
BlockWrite,0x35,0xE2,0x0502B100010415
BlockWrite,0x35,0xE3,0x0400000000E2
Pause,0.2,Pausing 0.20 ms for ROM write hold time
BlockWrite,0x35,0xE2,0x0502B20001042F
BlockWrite,0x35,0xE3,0x0400000000E2
Pause,0.2,Pausing 0.20 ms for ROM write hold time
BlockWrite,0x35,0xE2,0x0502B300010439
BlockWrite,0x35,0xE3,0x0400000000E2
Pause,0.2,Pausing 0.20 ms for ROM write hold time
BlockWrite,0x35,0xE2,0x0502B40001045B
BlockWrite,0x35,0xE3,0x0400000000E2
Pause,0.2,Pausing 0.20 ms for ROM write hold time
BlockWrite,0x35,0xE2,0x0502B50001044D
BlockWrite,0x35,0xE3,0x0400000000E2
Pause,0.2,Pausing 0.20 ms for ROM write hold time
BlockWrite,0x35,0xE2,0x0502B600010477
BlockWrite,0x35,0xE3,0x0400000000E2
Pause,0.2,Pausing 0.20 ms for ROM write hold time
BlockWrite,0x35,0xE2,0x0502B700010461
BlockWrite,0x35,0xE3,0x0400000000E2
Pause,0.2,Pausing 0.20 ms for ROM write hold time
BlockWrite,0x35,0xE2,0x0502B8000104B3
BlockWrite,0x35,0xE3,0x0400000000E2
Pause,0.2,Pausing 0.20 ms for ROM write hold time
BlockWrite,0x35,0xE2,0x0502B9000104A5
BlockWrite,0x35,0xE3,0x0400000000E2
Pause,0.2,Pausing 0.20 ms for ROM write hold time
BlockWrite,0x35,0xE2,0x0502BA0001049F
BlockWrite,0x35,0xE3,0x0400000000E2
Pause,0.2,Pausing 0.20 ms for ROM write hold time
BlockWrite,0x35,0xE2,0x0502BB00010489
BlockWrite,0x35,0xE3,0x0400000000E2
Pause,0.2,Pausing 0.20 ms for ROM write hold time
BlockWrite,0x35,0xE2,0x0502BC000104EB
BlockWrite,0x35,0xE3,0x0400000000E2
Pause,0.2,Pausing 0.20 ms for ROM write hold time
BlockWrite,0x35,0xE2,0x0502BD000104FD
BlockWrite,0x35,0xE3,0x0400000000E2
Pause,0.2,Pausing 0.20 ms for ROM write hold time
BlockWrite,0x35,0xE2,0x0502BE000104C7
BlockWrite,0x35,0xE3,0x0400000000E2
Pause,0.2,Pausing 0.20 ms for ROM write hold time
BlockWrite,0x35,0xE2,0x0502BF000104D1
BlockWrite,0x35,0xE3,0x0400000000E2
Pause,0.2,Pausing 0.20 ms for ROM write hold time
BlockWrite,0x35,0xE2,0x0502C000010431
BlockWrite,0x35,0xE3,0x0400000000E2
Pause,0.2,Pausing 0.20 ms for ROM write hold time
BlockWrite,0x35,0xE2,0x0502C100010427
BlockWrite,0x35,0xE3,0x0400000000E2
Pause,0.2,Pausing 0.20 ms for ROM write hold time
BlockWrite,0x35,0xE2,0x0502C20001041D
BlockWrite,0x35,0xE3,0x0400000000E2
Pause,0.2,Pausing 0.20 ms for ROM write hold time
BlockWrite,0x35,0xE2,0x0502C30001040B
BlockWrite,0x35,0xE3,0x0400000000E2
Pause,0.2,Pausing 0.20 ms for ROM write hold time
BlockWrite,0x35,0xE2,0x0502C400010469
BlockWrite,0x35,0xE3,0x0400000000E2
Pause,0.2,Pausing 0.20 ms for ROM write hold time
BlockWrite,0x35,0xE2,0x0502C50001047F
BlockWrite,0x35,0xE3,0x044000399AF2
Pause,0.2,Pausing 0.20 ms for ROM write hold time
BlockWrite,0x35,0xE2,0x0502C600010445
BlockWrite,0x35,0xE3,0x0434CD3000F6
Pause,0.2,Pausing 0.20 ms for ROM write hold time
BlockWrite,0x35,0xE2,0x0502C700010453
BlockWrite,0x35,0xE3,0x0400000000E2
Pause,0.2,Pausing 0.20 ms for ROM write hold time
BlockWrite,0x35,0xE2,0x0502C800010481
BlockWrite,0x35,0xE3,0x04000034CD22
Pause,0.2,Pausing 0.20 ms for ROM write hold time
BlockWrite,0x35,0xE2,0x0502C900010497
BlockWrite,0x35,0xE3,0x0400000000E2
Pause,0.2,Pausing 0.20 ms for ROM write hold time
BlockWrite,0x35,0xE2,0x0502CA000104AD
BlockWrite,0x35,0xE3,0x0400000000E2
Pause,0.2,Pausing 0.20 ms for ROM write hold time
BlockWrite,0x35,0xE2,0x0502CB000104BB
BlockWrite,0x35,0xE3,0x0400000000E2
Pause,0.2,Pausing 0.20 ms for ROM write hold time
BlockWrite,0x35,0xE2,0x0502CC000104D9
BlockWrite,0x35,0xE3,0x0400000000E2
Pause,0.2,Pausing 0.20 ms for ROM write hold time
BlockWrite,0x35,0xE2,0x0502CD000104CF
BlockWrite,0x35,0xE3,0x0443333C7B7C
Pause,0.2,Pausing 0.20 ms for ROM write hold time
BlockWrite,0x35,0xE2,0x0502CE000104F5
BlockWrite,0x35,0xE3,0x0437713266C3
Pause,0.2,Pausing 0.20 ms for ROM write hold time
BlockWrite,0x35,0xE2,0x0502CF000104E3
BlockWrite,0x35,0xE3,0x0400000000E2
Pause,0.2,Pausing 0.20 ms for ROM write hold time
BlockWrite,0x35,0xE2,0x0502D000010456
BlockWrite,0x35,0xE3,0x040000377120
Pause,0.2,Pausing 0.20 ms for ROM write hold time
BlockWrite,0x35,0xE2,0x0502D100010440
BlockWrite,0x35,0xE3,0x0400000000E2
Pause,0.2,Pausing 0.20 ms for ROM write hold time
BlockWrite,0x35,0xE2,0x0502D20001047A
BlockWrite,0x35,0xE3,0x0400000000E2
Pause,0.2,Pausing 0.20 ms for ROM write hold time
BlockWrite,0x35,0xE2,0x0502D30001046C
BlockWrite,0x35,0xE3,0x0400000000E2
Pause,0.2,Pausing 0.20 ms for ROM write hold time
BlockWrite,0x35,0xE2,0x0502D40001040E
BlockWrite,0x35,0xE3,0x0400000000E2
Pause,0.2,Pausing 0.20 ms for ROM write hold time
BlockWrite,0x35,0xE2,0x0502D500010418
BlockWrite,0x35,0xE3,0x043CCD36B819
Pause,0.2,Pausing 0.20 ms for ROM write hold time
BlockWrite,0x35,0xE2,0x0502D600010422
BlockWrite,0x35,0xE3,0x0432292D9A96
Pause,0.2,Pausing 0.20 ms for ROM write hold time
BlockWrite,0x35,0xE2,0x0502D700010434
BlockWrite,0x35,0xE3,0x0400000000E2
Pause,0.2,Pausing 0.20 ms for ROM write hold time
BlockWrite,0x35,0xE2,0x0502D8000104E6
BlockWrite,0x35,0xE3,0x0400003229EE
Pause,0.2,Pausing 0.20 ms for ROM write hold time
BlockWrite,0x35,0xE2,0x0502D9000104F0
BlockWrite,0x35,0xE3,0x0400000000E2
Pause,0.2,Pausing 0.20 ms for ROM write hold time
BlockWrite,0x35,0xE2,0x0502DA000104CA
BlockWrite,0x35,0xE3,0x0400000000E2
Pause,0.2,Pausing 0.20 ms for ROM write hold time
BlockWrite,0x35,0xE2,0x0502DB000104DC
BlockWrite,0x35,0xE3,0x0400000000E2
Pause,0.2,Pausing 0.20 ms for ROM write hold time
BlockWrite,0x35,0xE2,0x0502DC000104BE
BlockWrite,0x35,0xE3,0x0400000000E2
Pause,0.2,Pausing 0.20 ms for ROM write hold time
BlockWrite,0x35,0xE2,0x0502DD000104A8
BlockWrite,0x35,0xE3,0x0443333C7B7C
Pause,0.2,Pausing 0.20 ms for ROM write hold time
BlockWrite,0x35,0xE2,0x0502DE00010492
BlockWrite,0x35,0xE3,0x04377137332E
Pause,0.2,Pausing 0.20 ms for ROM write hold time
BlockWrite,0x35,0xE2,0x0502DF00010484
BlockWrite,0x35,0xE3,0x0400000000E2
Pause,0.2,Pausing 0.20 ms for ROM write hold time
BlockWrite,0x35,0xE2,0x0502E0000104FF
BlockWrite,0x35,0xE3,0x0400003CB8C6
Pause,0.2,Pausing 0.20 ms for ROM write hold time
BlockWrite,0x35,0xE2,0x0502E1000104E9
BlockWrite,0x35,0xE3,0x0400000000E2
Pause,0.2,Pausing 0.20 ms for ROM write hold time
BlockWrite,0x35,0xE2,0x0502E2000104D3
BlockWrite,0x35,0xE3,0x0400000000E2
Pause,0.2,Pausing 0.20 ms for ROM write hold time
BlockWrite,0x35,0xE2,0x0502E3000104C5
BlockWrite,0x35,0xE3,0x0400000000E2
Pause,0.2,Pausing 0.20 ms for ROM write hold time
BlockWrite,0x35,0xE2,0x0502E4000104A7
BlockWrite,0x35,0xE3,0x0400000000E2
Pause,0.2,Pausing 0.20 ms for ROM write hold time
BlockWrite,0x35,0xE2,0x0502E5000104B1
BlockWrite,0x35,0xE3,0x0443333C7B7C
Pause,0.2,Pausing 0.20 ms for ROM write hold time
BlockWrite,0x35,0xE2,0x0502E60001048B
BlockWrite,0x35,0xE3,0x04377134CDE5
Pause,0.2,Pausing 0.20 ms for ROM write hold time
BlockWrite,0x35,0xE2,0x0502E70001049D
BlockWrite,0x35,0xE3,0x0400000000E2
Pause,0.2,Pausing 0.20 ms for ROM write hold time
BlockWrite,0x35,0xE2,0x0502E80001044F
BlockWrite,0x35,0xE3,0x0400003A14F5
Pause,0.2,Pausing 0.20 ms for ROM write hold time
BlockWrite,0x35,0xE2,0x0502E900010459
BlockWrite,0x35,0xE3,0x0400000000E2
Pause,0.2,Pausing 0.20 ms for ROM write hold time
BlockWrite,0x35,0xE2,0x0502EA00010463
BlockWrite,0x35,0xE3,0x0400000000E2
Pause,0.2,Pausing 0.20 ms for ROM write hold time
BlockWrite,0x35,0xE2,0x0502EB00010475
BlockWrite,0x35,0xE3,0x0400000000E2
Pause,0.2,Pausing 0.20 ms for ROM write hold time
BlockWrite,0x35,0xE2,0x0502EC00010417
BlockWrite,0x35,0xE3,0x0400000000E2
Pause,0.2,Pausing 0.20 ms for ROM write hold time
BlockWrite,0x35,0xE2,0x0502ED00010401
BlockWrite,0x35,0xE3,0x0410001000D2
Pause,0.2,Pausing 0.20 ms for ROM write hold time
BlockWrite,0x35,0xE2,0x0502EE0001043B
BlockWrite,0x35,0xE3,0x04080002AC35
Pause,0.2,Pausing 0.20 ms for ROM write hold time
BlockWrite,0x35,0xE2,0x0502EF0001042D
BlockWrite,0x35,0xE3,0x0410001000D2
Pause,0.2,Pausing 0.20 ms for ROM write hold time
BlockWrite,0x35,0xE2,0x0502F000010498
BlockWrite,0x35,0xE3,0x04100008002D
Pause,0.2,Pausing 0.20 ms for ROM write hold time
BlockWrite,0x35,0xE2,0x0502F10001048E
BlockWrite,0x35,0xE3,0x041000000085
Pause,0.2,Pausing 0.20 ms for ROM write hold time
BlockWrite,0x35,0xE2,0x0502F2000104B4
BlockWrite,0x35,0xE3,0x0400000000E2
Pause,0.2,Pausing 0.20 ms for ROM write hold time
BlockWrite,0x35,0xE2,0x0502F3000104A2
BlockWrite,0x35,0xE3,0x0400000000E2
Pause,0.2,Pausing 0.20 ms for ROM write hold time
BlockWrite,0x35,0xE2,0x0502F4000104C0
BlockWrite,0x35,0xE3,0x0400000000E2
Pause,0.2,Pausing 0.20 ms for ROM write hold time
BlockWrite,0x35,0xE2,0x0502F5000104D6
BlockWrite,0x35,0xE3,0x043CCD36B819
Pause,0.2,Pausing 0.20 ms for ROM write hold time
BlockWrite,0x35,0xE2,0x0502F6000104EC
BlockWrite,0x35,0xE3,0x04322928CD75
Pause,0.2,Pausing 0.20 ms for ROM write hold time
BlockWrite,0x35,0xE2,0x0502F7000104FA
BlockWrite,0x35,0xE3,0x0400000000E2
Pause,0.2,Pausing 0.20 ms for ROM write hold time
BlockWrite,0x35,0xE2,0x0502F800010428
BlockWrite,0x35,0xE3,0x0400002CE119
Pause,0.2,Pausing 0.20 ms for ROM write hold time
BlockWrite,0x35,0xE2,0x0502F90001043E
BlockWrite,0x35,0xE3,0x0400000000E2
Pause,0.2,Pausing 0.20 ms for ROM write hold time
BlockWrite,0x35,0xE2,0x0502FA00010404
BlockWrite,0x35,0xE3,0x0400000000E2
Pause,0.2,Pausing 0.20 ms for ROM write hold time
BlockWrite,0x35,0xE2,0x0502FB00010412
BlockWrite,0x35,0xE3,0x0400000000E2
Pause,0.2,Pausing 0.20 ms for ROM write hold time
BlockWrite,0x35,0xE2,0x0502FC00010470
BlockWrite,0x35,0xE3,0x0400000000E2
Pause,0.2,Pausing 0.20 ms for ROM write hold time
BlockWrite,0x35,0xE2,0x0502FD00010466
BlockWrite,0x35,0xE3,0x043CCD36B819
Pause,0.2,Pausing 0.20 ms for ROM write hold time
BlockWrite,0x35,0xE2,0x0502FE0001045C
BlockWrite,0x35,0xE3,0x0432292B33BE
Pause,0.2,Pausing 0.20 ms for ROM write hold time
BlockWrite,0x35,0xE2,0x0502FF0001044A
BlockWrite,0x35,0xE3,0x0400000000E2
Pause,0.2,Pausing 0.20 ms for ROM write hold time
BlockWrite,0x35,0xE2,0x050200010104F0
BlockWrite,0x35,0xE3,0x0400002F851D
Pause,0.2,Pausing 0.20 ms for ROM write hold time
BlockWrite,0x35,0xE2,0x050201010104E6
BlockWrite,0x35,0xE3,0x0400000000E2
Pause,0.2,Pausing 0.20 ms for ROM write hold time
BlockWrite,0x35,0xE2,0x050202010104DC
BlockWrite,0x35,0xE3,0x0400000000E2
Pause,0.2,Pausing 0.20 ms for ROM write hold time
BlockWrite,0x35,0xE2,0x050203010104CA
BlockWrite,0x35,0xE3,0x0400000000E2
Pause,0.2,Pausing 0.20 ms for ROM write hold time
BlockWrite,0x35,0xE2,0x050204010104A8
BlockWrite,0x35,0xE3,0x0400000000E2
Pause,0.2,Pausing 0.20 ms for ROM write hold time
BlockWrite,0x35,0xE2,0x050205010104BE
BlockWrite,0x35,0xE3,0x0496000000C0
Pause,0.2,Pausing 0.20 ms for ROM write hold time
BlockWrite,0x35,0xE2,0x05020601010484
BlockWrite,0x35,0xE3,0x0400000008DA
Pause,0.2,Pausing 0.20 ms for ROM write hold time
BlockWrite,0x35,0xE2,0x05020701010492
BlockWrite,0x35,0xE3,0x040002000034
Pause,0.2,Pausing 0.20 ms for ROM write hold time
BlockWrite,0x35,0xE2,0x05020801010440
BlockWrite,0x35,0xE3,0x049E00000070
Pause,0.2,Pausing 0.20 ms for ROM write hold time
BlockWrite,0x35,0xE2,0x05020901010456
BlockWrite,0x35,0xE3,0x0400000001E5
Pause,0.2,Pausing 0.20 ms for ROM write hold time
BlockWrite,0x35,0xE2,0x05020A0101046C
BlockWrite,0x35,0xE3,0x040004000049
Pause,0.2,Pausing 0.20 ms for ROM write hold time
BlockWrite,0x35,0xE2,0x05020B0101047A
BlockWrite,0x35,0xE3,0x04A600000069
Pause,0.2,Pausing 0.20 ms for ROM write hold time
BlockWrite,0x35,0xE2,0x05020C01010418
BlockWrite,0x35,0xE3,0x0400000002EC
Pause,0.2,Pausing 0.20 ms for ROM write hold time
BlockWrite,0x35,0xE2,0x05020D0101040E
BlockWrite,0x35,0xE3,0x0400000000E2
Pause,0.2,Pausing 0.20 ms for ROM write hold time
BlockWrite,0x35,0xE2,0x05020E01010434
BlockWrite,0x35,0xE3,0x04A8000000AD
Pause,0.2,Pausing 0.20 ms for ROM write hold time
BlockWrite,0x35,0xE2,0x05020F01010422
BlockWrite,0x35,0xE3,0x04000000806B
Pause,0.2,Pausing 0.20 ms for ROM write hold time
BlockWrite,0x35,0xE2,0x05021001010497
BlockWrite,0x35,0xE3,0x04000701F72A
Pause,0.2,Pausing 0.20 ms for ROM write hold time
BlockWrite,0x35,0xE2,0x05021101010481
BlockWrite,0x35,0xE3,0x0400000000E2
Pause,0.2,Pausing 0.20 ms for ROM write hold time
BlockWrite,0x35,0xE2,0x050212010104BB
BlockWrite,0x35,0xE3,0x0400000000E2
Pause,0.2,Pausing 0.20 ms for ROM write hold time
BlockWrite,0x35,0xE2,0x050213010104AD
BlockWrite,0x35,0xE3,0x0400000000E2
Pause,0.2,Pausing 0.20 ms for ROM write hold time
BlockWrite,0x35,0xE2,0x050214010104CF
BlockWrite,0x35,0xE3,0x0400000000E2
Pause,0.2,Pausing 0.20 ms for ROM write hold time
BlockWrite,0x35,0xE2,0x050215010104D9
BlockWrite,0x35,0xE3,0x04000000806B
Pause,0.2,Pausing 0.20 ms for ROM write hold time
BlockWrite,0x35,0xE2,0x050216010104E3
BlockWrite,0x35,0xE3,0x0400000000E2
Pause,0.2,Pausing 0.20 ms for ROM write hold time
BlockWrite,0x35,0xE2,0x050217010104F5
BlockWrite,0x35,0xE3,0x0400000000E2
Pause,0.2,Pausing 0.20 ms for ROM write hold time
BlockWrite,0x35,0xE2,0x05021801010427
BlockWrite,0x35,0xE3,0x0400000000E2
Pause,0.2,Pausing 0.20 ms for ROM write hold time
BlockWrite,0x35,0xE2,0x05021901010431
BlockWrite,0x35,0xE3,0x0400000000E2
Pause,0.2,Pausing 0.20 ms for ROM write hold time
BlockWrite,0x35,0xE2,0x05021A0101040B
BlockWrite,0x35,0xE3,0x0400000000E2
Pause,0.2,Pausing 0.20 ms for ROM write hold time
BlockWrite,0x35,0xE2,0x05021B0101041D
BlockWrite,0x35,0xE3,0x0400000000E2
Pause,0.2,Pausing 0.20 ms for ROM write hold time
BlockWrite,0x35,0xE2,0x05021C0101047F
BlockWrite,0x35,0xE3,0x0400000000E2
Pause,0.2,Pausing 0.20 ms for ROM write hold time
BlockWrite,0x35,0xE2,0x05021D01010469
BlockWrite,0x35,0xE3,0x0400000000E2
Pause,0.2,Pausing 0.20 ms for ROM write hold time
BlockWrite,0x35,0xE2,0x05021E01010453
BlockWrite,0x35,0xE3,0x0400000000E2
Pause,0.2,Pausing 0.20 ms for ROM write hold time
BlockWrite,0x35,0xE2,0x05021F01010445
BlockWrite,0x35,0xE3,0x0400000000E2
Pause,0.2,Pausing 0.20 ms for ROM write hold time
BlockWrite,0x35,0xE2,0x0502200101043E
BlockWrite,0x35,0xE3,0x0400000000E2
Pause,0.2,Pausing 0.20 ms for ROM write hold time
BlockWrite,0x35,0xE2,0x05022101010428
BlockWrite,0x35,0xE3,0x0400000000E2
Pause,0.2,Pausing 0.20 ms for ROM write hold time
BlockWrite,0x35,0xE2,0x05022201010412
BlockWrite,0x35,0xE3,0x0400000000E2
Pause,0.2,Pausing 0.20 ms for ROM write hold time
BlockWrite,0x35,0xE2,0x05022301010404
BlockWrite,0x35,0xE3,0x0400000000E2
Pause,0.2,Pausing 0.20 ms for ROM write hold time
BlockWrite,0x35,0xE2,0x05022401010466
BlockWrite,0x35,0xE3,0x0400000000E2
Pause,0.2,Pausing 0.20 ms for ROM write hold time
BlockWrite,0x35,0xE2,0x05022501010470
BlockWrite,0x35,0xE3,0x0400000000E2
Pause,0.2,Pausing 0.20 ms for ROM write hold time
BlockWrite,0x35,0xE2,0x0502260101044A
BlockWrite,0x35,0xE3,0x0400000000E2
Pause,0.2,Pausing 0.20 ms for ROM write hold time
BlockWrite,0x35,0xE2,0x0502270101045C
BlockWrite,0x35,0xE3,0x0400000000E2
Pause,0.2,Pausing 0.20 ms for ROM write hold time
BlockWrite,0x35,0xE2,0x0502280101048E
BlockWrite,0x35,0xE3,0x0400000000E2
Pause,0.2,Pausing 0.20 ms for ROM write hold time
BlockWrite,0x35,0xE2,0x05022901010498
BlockWrite,0x35,0xE3,0x0400000000E2
Pause,0.2,Pausing 0.20 ms for ROM write hold time
BlockWrite,0x35,0xE2,0x05022A010104A2
BlockWrite,0x35,0xE3,0x0400000000E2
Pause,0.2,Pausing 0.20 ms for ROM write hold time
BlockWrite,0x35,0xE2,0x05022B010104B4
BlockWrite,0x35,0xE3,0x0400000000E2
Pause,0.2,Pausing 0.20 ms for ROM write hold time
BlockWrite,0x35,0xE2,0x05022C010104D6
BlockWrite,0x35,0xE3,0x0400000000E2
Pause,0.2,Pausing 0.20 ms for ROM write hold time
BlockWrite,0x35,0xE2,0x05022D010104C0
BlockWrite,0x35,0xE3,0x0400000000E2
Pause,0.2,Pausing 0.20 ms for ROM write hold time
BlockWrite,0x35,0xE2,0x05022E010104FA
BlockWrite,0x35,0xE3,0x0400000000E2
Pause,0.2,Pausing 0.20 ms for ROM write hold time
BlockWrite,0x35,0xE2,0x05022F010104EC
BlockWrite,0x35,0xE3,0x0400000000E2
Pause,0.2,Pausing 0.20 ms for ROM write hold time
BlockWrite,0x35,0xE2,0x05023001010459
BlockWrite,0x35,0xE3,0x0400000000E2
Pause,0.2,Pausing 0.20 ms for ROM write hold time
BlockWrite,0x35,0xE2,0x0502310101044F
BlockWrite,0x35,0xE3,0x0400000000E2
Pause,0.2,Pausing 0.20 ms for ROM write hold time
BlockWrite,0x35,0xE2,0x05023201010475
BlockWrite,0x35,0xE3,0x0400000000E2
Pause,0.2,Pausing 0.20 ms for ROM write hold time
BlockWrite,0x35,0xE2,0x05023301010463
BlockWrite,0x35,0xE3,0x0400000000E2
Pause,0.2,Pausing 0.20 ms for ROM write hold time
BlockWrite,0x35,0xE2,0x05023401010401
BlockWrite,0x35,0xE3,0x0400000000E2
Pause,0.2,Pausing 0.20 ms for ROM write hold time
BlockWrite,0x35,0xE2,0x05023501010417
BlockWrite,0x35,0xE3,0x04008F0000AE
Pause,0.2,Pausing 0.20 ms for ROM write hold time
BlockWrite,0x35,0xE2,0x0502360101042D
BlockWrite,0x35,0xE3,0x04008F0000AE
Pause,0.2,Pausing 0.20 ms for ROM write hold time
BlockWrite,0x35,0xE2,0x0502370101043B
BlockWrite,0x35,0xE3,0x04008F0000AE
Pause,0.2,Pausing 0.20 ms for ROM write hold time
BlockWrite,0x35,0xE2,0x050238010104E9
BlockWrite,0x35,0xE3,0x04008F0000AE
Pause,0.2,Pausing 0.20 ms for ROM write hold time
BlockWrite,0x35,0xE2,0x050239010104FF
BlockWrite,0x35,0xE3,0x040004000049
Pause,0.2,Pausing 0.20 ms for ROM write hold time
BlockWrite,0x35,0xE2,0x05023A010104C5
BlockWrite,0x35,0xE3,0x040004000049
Pause,0.2,Pausing 0.20 ms for ROM write hold time
BlockWrite,0x35,0xE2,0x05023B010104D3
BlockWrite,0x35,0xE3,0x040004000049
Pause,0.2,Pausing 0.20 ms for ROM write hold time
BlockWrite,0x35,0xE2,0x05023C010104B1
BlockWrite,0x35,0xE3,0x040004000049
Pause,0.2,Pausing 0.20 ms for ROM write hold time
BlockWrite,0x35,0xE2,0x05023D010104A7
BlockWrite,0x35,0xE3,0x0400000000E2
Pause,0.2,Pausing 0.20 ms for ROM write hold time
BlockWrite,0x35,0xE2,0x05023E0101049D
BlockWrite,0x35,0xE3,0x0400000000E2
Pause,0.2,Pausing 0.20 ms for ROM write hold time
BlockWrite,0x35,0xE2,0x05023F0101048B
BlockWrite,0x35,0xE3,0x0400000000E2
Pause,0.2,Pausing 0.20 ms for ROM write hold time
BlockWrite,0x35,0xE2,0x0502400101046B
BlockWrite,0x35,0xE3,0x0400000000E2
Pause,0.2,Pausing 0.20 ms for ROM write hold time
BlockWrite,0x35,0xE2,0x0502410101047D
BlockWrite,0x35,0xE3,0x0400000000E2
Pause,0.2,Pausing 0.20 ms for ROM write hold time
BlockWrite,0x35,0xE2,0x05024201010447
BlockWrite,0x35,0xE3,0x0400000000E2
Pause,0.2,Pausing 0.20 ms for ROM write hold time
BlockWrite,0x35,0xE2,0x05024301010451
BlockWrite,0x35,0xE3,0x0400000000E2
Pause,0.2,Pausing 0.20 ms for ROM write hold time
BlockWrite,0x35,0xE2,0x05024401010433
BlockWrite,0x35,0xE3,0x0400000000E2
Pause,0.2,Pausing 0.20 ms for ROM write hold time
BlockWrite,0x35,0xE2,0x05024501010425
BlockWrite,0x35,0xE3,0x0400000000E2
Pause,0.2,Pausing 0.20 ms for ROM write hold time
BlockWrite,0x35,0xE2,0x0502460101041F
BlockWrite,0x35,0xE3,0x0400000000E2
Pause,0.2,Pausing 0.20 ms for ROM write hold time
BlockWrite,0x35,0xE2,0x05024701010409
BlockWrite,0x35,0xE3,0x0400000000E2
Pause,0.2,Pausing 0.20 ms for ROM write hold time
BlockWrite,0x35,0xE2,0x050248010104DB
BlockWrite,0x35,0xE3,0x0400000000E2
Pause,0.2,Pausing 0.20 ms for ROM write hold time
BlockWrite,0x35,0xE2,0x050249010104CD
BlockWrite,0x35,0xE3,0x0400000000E2
Pause,0.2,Pausing 0.20 ms for ROM write hold time
BlockWrite,0x35,0xE2,0x05024A010104F7
BlockWrite,0x35,0xE3,0x0400000000E2
Pause,0.2,Pausing 0.20 ms for ROM write hold time
BlockWrite,0x35,0xE2,0x05024B010104E1
BlockWrite,0x35,0xE3,0x0400000000E2
Pause,0.2,Pausing 0.20 ms for ROM write hold time
BlockWrite,0x35,0xE2,0x05024C01010483
BlockWrite,0x35,0xE3,0x0400000000E2
Pause,0.2,Pausing 0.20 ms for ROM write hold time
BlockWrite,0x35,0xE2,0x05024D01010495
BlockWrite,0x35,0xE3,0x0400000000E2
Pause,0.2,Pausing 0.20 ms for ROM write hold time
BlockWrite,0x35,0xE2,0x05024E010104AF
BlockWrite,0x35,0xE3,0x0400000000E2
Pause,0.2,Pausing 0.20 ms for ROM write hold time
BlockWrite,0x35,0xE2,0x05024F010104B9
BlockWrite,0x35,0xE3,0x0400000000E2
Pause,0.2,Pausing 0.20 ms for ROM write hold time
BlockWrite,0x35,0xE2,0x0502500101040C
BlockWrite,0x35,0xE3,0x0400000000E2
Pause,0.2,Pausing 0.20 ms for ROM write hold time
BlockWrite,0x35,0xE2,0x0502510101041A
BlockWrite,0x35,0xE3,0x0400000000E2
Pause,0.2,Pausing 0.20 ms for ROM write hold time
BlockWrite,0x35,0xE2,0x05025201010420
BlockWrite,0x35,0xE3,0x0400000000E2
Pause,0.2,Pausing 0.20 ms for ROM write hold time
BlockWrite,0x35,0xE2,0x05025301010436
BlockWrite,0x35,0xE3,0x0400000000E2
Pause,0.2,Pausing 0.20 ms for ROM write hold time
BlockWrite,0x35,0xE2,0x05025401010454
BlockWrite,0x35,0xE3,0x0400000000E2
Pause,0.2,Pausing 0.20 ms for ROM write hold time
BlockWrite,0x35,0xE2,0x05025501010442
BlockWrite,0x35,0xE3,0x0400000000E2
Pause,0.2,Pausing 0.20 ms for ROM write hold time
BlockWrite,0x35,0xE2,0x05025601010478
BlockWrite,0x35,0xE3,0x0400000000E2
Pause,0.2,Pausing 0.20 ms for ROM write hold time
BlockWrite,0x35,0xE2,0x0502570101046E
BlockWrite,0x35,0xE3,0x0400000000E2
Pause,0.2,Pausing 0.20 ms for ROM write hold time
BlockWrite,0x35,0xE2,0x050258010104BC
BlockWrite,0x35,0xE3,0x0400000000E2
Pause,0.2,Pausing 0.20 ms for ROM write hold time
BlockWrite,0x35,0xE2,0x050259010104AA
BlockWrite,0x35,0xE3,0x0400000000E2
Pause,0.2,Pausing 0.20 ms for ROM write hold time
BlockWrite,0x35,0xE2,0x05025A01010490
BlockWrite,0x35,0xE3,0x0400000000E2
Pause,0.2,Pausing 0.20 ms for ROM write hold time
BlockWrite,0x35,0xE2,0x05025B01010486
BlockWrite,0x35,0xE3,0x0400000000E2
Pause,0.2,Pausing 0.20 ms for ROM write hold time
BlockWrite,0x35,0xE2,0x05025C010104E4
BlockWrite,0x35,0xE3,0x0400000000E2
Pause,0.2,Pausing 0.20 ms for ROM write hold time
BlockWrite,0x35,0xE2,0x05025D010104F2
BlockWrite,0x35,0xE3,0x0400000000E2
Pause,0.2,Pausing 0.20 ms for ROM write hold time
BlockWrite,0x35,0xE2,0x05025E010104C8
BlockWrite,0x35,0xE3,0x0400000000E2
Pause,0.2,Pausing 0.20 ms for ROM write hold time
BlockWrite,0x35,0xE2,0x05025F010104DE
BlockWrite,0x35,0xE3,0x0400000000E2
Pause,0.2,Pausing 0.20 ms for ROM write hold time
BlockWrite,0x35,0xE2,0x050260010104A5
BlockWrite,0x35,0xE3,0x0400000000E2
Pause,0.2,Pausing 0.20 ms for ROM write hold time
BlockWrite,0x35,0xE2,0x050261010104B3
BlockWrite,0x35,0xE3,0x0400000000E2
Pause,0.2,Pausing 0.20 ms for ROM write hold time
BlockWrite,0x35,0xE2,0x05026201010489
BlockWrite,0x35,0xE3,0x0400000000E2
Pause,0.2,Pausing 0.20 ms for ROM write hold time
BlockWrite,0x35,0xE2,0x0502630101049F
BlockWrite,0x35,0xE3,0x0400000000E2
Pause,0.2,Pausing 0.20 ms for ROM write hold time
BlockWrite,0x35,0xE2,0x050264010104FD
BlockWrite,0x35,0xE3,0x0400000000E2
Pause,0.2,Pausing 0.20 ms for ROM write hold time
BlockWrite,0x35,0xE2,0x050265010104EB
BlockWrite,0x35,0xE3,0x0400000000E2
Pause,0.2,Pausing 0.20 ms for ROM write hold time
BlockWrite,0x35,0xE2,0x050266010104D1
BlockWrite,0x35,0xE3,0x0400000000E2
Pause,0.2,Pausing 0.20 ms for ROM write hold time
BlockWrite,0x35,0xE2,0x050267010104C7
BlockWrite,0x35,0xE3,0x0400000000E2
Pause,0.2,Pausing 0.20 ms for ROM write hold time
BlockWrite,0x35,0xE2,0x05026801010415
BlockWrite,0x35,0xE3,0x0400000000E2
Pause,0.2,Pausing 0.20 ms for ROM write hold time
BlockWrite,0x35,0xE2,0x05026901010403
BlockWrite,0x35,0xE3,0x0400000000E2
Pause,0.2,Pausing 0.20 ms for ROM write hold time
BlockWrite,0x35,0xE2,0x05026A01010439
BlockWrite,0x35,0xE3,0x0400000000E2
Pause,0.2,Pausing 0.20 ms for ROM write hold time
BlockWrite,0x35,0xE2,0x05026B0101042F
BlockWrite,0x35,0xE3,0x0400000000E2
Pause,0.2,Pausing 0.20 ms for ROM write hold time
BlockWrite,0x35,0xE2,0x05026C0101044D
BlockWrite,0x35,0xE3,0x0400000000E2
Pause,0.2,Pausing 0.20 ms for ROM write hold time
BlockWrite,0x35,0xE2,0x05026D0101045B
BlockWrite,0x35,0xE3,0x0400000000E2
Pause,0.2,Pausing 0.20 ms for ROM write hold time
BlockWrite,0x35,0xE2,0x05026E01010461
BlockWrite,0x35,0xE3,0x0400000000E2
Pause,0.2,Pausing 0.20 ms for ROM write hold time
BlockWrite,0x35,0xE2,0x05026F01010477
BlockWrite,0x35,0xE3,0x0400000000E2
Pause,0.2,Pausing 0.20 ms for ROM write hold time
BlockWrite,0x35,0xE2,0x050270010104C2
BlockWrite,0x35,0xE3,0x0400000000E2
Pause,0.2,Pausing 0.20 ms for ROM write hold time
BlockWrite,0x35,0xE2,0x050271010104D4
BlockWrite,0x35,0xE3,0x0400000000E2
Pause,0.2,Pausing 0.20 ms for ROM write hold time
BlockWrite,0x35,0xE2,0x050272010104EE
BlockWrite,0x35,0xE3,0x0400000000E2
Pause,0.2,Pausing 0.20 ms for ROM write hold time
BlockWrite,0x35,0xE2,0x050273010104F8
BlockWrite,0x35,0xE3,0x0400000000E2
Pause,0.2,Pausing 0.20 ms for ROM write hold time
BlockWrite,0x35,0xE2,0x0502740101049A
BlockWrite,0x35,0xE3,0x0400000000E2
Pause,0.2,Pausing 0.20 ms for ROM write hold time
BlockWrite,0x35,0xE2,0x0502750101048C
BlockWrite,0x35,0xE3,0x04000064BA6C
Pause,0.2,Pausing 0.20 ms for ROM write hold time
BlockWrite,0x35,0xE2,0x05027801010472
BlockWrite,0x35,0xE3,0x0401000000F4
Pause,0.2,Pausing 0.20 ms for ROM write hold time
BlockWrite,0x35,0xE2,0x05027901010464
BlockWrite,0x35,0xE3,0x0400000101F0
Pause,0.2,Pausing 0.20 ms for ROM write hold time
BlockWrite,0x35,0xE2,0x05027A0101045E
BlockWrite,0x35,0xE3,0x0401000100E1
Pause,0.2,Pausing 0.20 ms for ROM write hold time
BlockWrite,0x35,0xE2,0x05027B01010448
BlockWrite,0x35,0xE3,0x0400000000E2
Pause,0.2,Pausing 0.20 ms for ROM write hold time
BlockWrite,0x35,0xE2,0x05027C0101042A
BlockWrite,0x35,0xE3,0x0400000404AA
Pause,0.2,Pausing 0.20 ms for ROM write hold time
BlockWrite,0x35,0xE2,0x05027D0101043C
BlockWrite,0x35,0xE3,0x0403000000D8
Pause,0.2,Pausing 0.20 ms for ROM write hold time
BlockWrite,0x35,0xE2,0x05027E01010406
BlockWrite,0x35,0xE3,0x04000D00120D
Pause,0.2,Pausing 0.20 ms for ROM write hold time
BlockWrite,0x35,0xE2,0x05027F01010410
BlockWrite,0x35,0xE3,0x0400000000E2
Pause,0.2,Pausing 0.20 ms for ROM write hold time
BlockWrite,0x35,0xE2,0x050280010104C1
BlockWrite,0x35,0xE3,0x0400000000E2
Pause,0.2,Pausing 0.20 ms for ROM write hold time
BlockWrite,0x35,0xE2,0x050281010104D7
BlockWrite,0x35,0xE3,0x0400000000E2
Pause,0.2,Pausing 0.20 ms for ROM write hold time
BlockWrite,0x35,0xE2,0x050282010104ED
BlockWrite,0x35,0xE3,0x0400000000E2
Pause,0.2,Pausing 0.20 ms for ROM write hold time
BlockWrite,0x35,0xE2,0x050283010104FB
BlockWrite,0x35,0xE3,0x0400000000E2
Pause,0.2,Pausing 0.20 ms for ROM write hold time
BlockWrite,0x35,0xE2,0x05028401010499
BlockWrite,0x35,0xE3,0x0400000000E2
Pause,0.2,Pausing 0.20 ms for ROM write hold time
BlockWrite,0x35,0xE2,0x0502850101048F
BlockWrite,0x35,0xE3,0x0400000000E2
Pause,0.2,Pausing 0.20 ms for ROM write hold time
BlockWrite,0x35,0xE2,0x050286010104B5
BlockWrite,0x35,0xE3,0x0400000000E2
Pause,0.2,Pausing 0.20 ms for ROM write hold time
BlockWrite,0x35,0xE2,0x050287010104A3
BlockWrite,0x35,0xE3,0x04023758E90C
Pause,0.2,Pausing 0.20 ms for ROM write hold time
BlockWrite,0x35,0xE2,0x05028801010471
BlockWrite,0x35,0xE3,0x04840B3F2B8C
Pause,0.2,Pausing 0.20 ms for ROM write hold time
BlockWrite,0x35,0xE2,0x05028901010467
BlockWrite,0x35,0xE3,0x04023758E90C
Pause,0.2,Pausing 0.20 ms for ROM write hold time
BlockWrite,0x35,0xE2,0x05028A0101045D
BlockWrite,0x35,0xE3,0x04830B3F2BEE
Pause,0.2,Pausing 0.20 ms for ROM write hold time
BlockWrite,0x35,0xE2,0x05028B0101044B
BlockWrite,0x35,0xE3,0x04023758E90C
Pause,0.2,Pausing 0.20 ms for ROM write hold time
BlockWrite,0x35,0xE2,0x05028C01010429
BlockWrite,0x35,0xE3,0x04828B3F2BF3
Pause,0.2,Pausing 0.20 ms for ROM write hold time
BlockWrite,0x35,0xE2,0x05028D0101043F
BlockWrite,0x35,0xE3,0x04023758E90C
Pause,0.2,Pausing 0.20 ms for ROM write hold time
BlockWrite,0x35,0xE2,0x05028E01010405
BlockWrite,0x35,0xE3,0x04820B3F2BF8
Pause,0.2,Pausing 0.20 ms for ROM write hold time
BlockWrite,0x35,0xE2,0x05028F01010413
BlockWrite,0x35,0xE3,0x0400000000E2
Pause,0.2,Pausing 0.20 ms for ROM write hold time
BlockWrite,0x35,0xE2,0x050290010104A6
BlockWrite,0x35,0xE3,0x0400000000E2
Pause,0.2,Pausing 0.20 ms for ROM write hold time
BlockWrite,0x35,0xE2,0x050291010104B0
BlockWrite,0x35,0xE3,0x0400000000E2
Pause,0.2,Pausing 0.20 ms for ROM write hold time
BlockWrite,0x35,0xE2,0x0502920101048A
BlockWrite,0x35,0xE3,0x0400000000E2
Pause,0.2,Pausing 0.20 ms for ROM write hold time
BlockWrite,0x35,0xE2,0x0502930101049C
BlockWrite,0x35,0xE3,0x0400000000E2
Pause,0.2,Pausing 0.20 ms for ROM write hold time
BlockWrite,0x35,0xE2,0x050294010104FE
BlockWrite,0x35,0xE3,0x0400000000E2
Pause,0.2,Pausing 0.20 ms for ROM write hold time
BlockWrite,0x35,0xE2,0x050295010104E8
BlockWrite,0x35,0xE3,0x0400000000E2
Pause,0.2,Pausing 0.20 ms for ROM write hold time
BlockWrite,0x35,0xE2,0x050296010104D2
BlockWrite,0x35,0xE3,0x0400000000E2
Pause,0.2,Pausing 0.20 ms for ROM write hold time
BlockWrite,0x35,0xE2,0x050297010104C4
BlockWrite,0x35,0xE3,0x0400000000E2
Pause,0.2,Pausing 0.20 ms for ROM write hold time
BlockWrite,0x35,0xE2,0x05029801010416
BlockWrite,0x35,0xE3,0x0400000000E2
Pause,0.2,Pausing 0.20 ms for ROM write hold time
BlockWrite,0x35,0xE2,0x05029901010400
BlockWrite,0x35,0xE3,0x0400000000E2
Pause,0.2,Pausing 0.20 ms for ROM write hold time
BlockWrite,0x35,0xE2,0x05029A0101043A
BlockWrite,0x35,0xE3,0x0400000000E2
Pause,0.2,Pausing 0.20 ms for ROM write hold time
BlockWrite,0x35,0xE2,0x05029B0101042C
BlockWrite,0x35,0xE3,0x0400000000E2
Pause,0.2,Pausing 0.20 ms for ROM write hold time
BlockWrite,0x35,0xE2,0x05029C0101044E
BlockWrite,0x35,0xE3,0x0400000000E2
Pause,0.2,Pausing 0.20 ms for ROM write hold time
BlockWrite,0x35,0xE2,0x05029D01010458
BlockWrite,0x35,0xE3,0x0400000000E2
Pause,0.2,Pausing 0.20 ms for ROM write hold time
BlockWrite,0x35,0xE2,0x05029E01010462
BlockWrite,0x35,0xE3,0x0400000000E2
Pause,0.2,Pausing 0.20 ms for ROM write hold time
BlockWrite,0x35,0xE2,0x05029F01010474
BlockWrite,0x35,0xE3,0x0400000000E2
Pause,0.2,Pausing 0.20 ms for ROM write hold time
BlockWrite,0x35,0xE2,0x0502A00101040F
BlockWrite,0x35,0xE3,0x0400000000E2
Pause,0.2,Pausing 0.20 ms for ROM write hold time
BlockWrite,0x35,0xE2,0x0502A101010419
BlockWrite,0x35,0xE3,0x0400000000E2
Pause,0.2,Pausing 0.20 ms for ROM write hold time
BlockWrite,0x35,0xE2,0x0502A201010423
BlockWrite,0x35,0xE3,0x0400000000E2
Pause,0.2,Pausing 0.20 ms for ROM write hold time
BlockWrite,0x35,0xE2,0x0502A301010435
BlockWrite,0x35,0xE3,0x0400000000E2
Pause,0.2,Pausing 0.20 ms for ROM write hold time
BlockWrite,0x35,0xE2,0x0502A401010457
BlockWrite,0x35,0xE3,0x0400000000E2
Pause,0.2,Pausing 0.20 ms for ROM write hold time
BlockWrite,0x35,0xE2,0x0502A501010441
BlockWrite,0x35,0xE3,0x0400000000E2
Pause,0.2,Pausing 0.20 ms for ROM write hold time
BlockWrite,0x35,0xE2,0x0502A60101047B
BlockWrite,0x35,0xE3,0x0400000000E2
Pause,0.2,Pausing 0.20 ms for ROM write hold time
BlockWrite,0x35,0xE2,0x0502A70101046D
BlockWrite,0x35,0xE3,0x0400000000E2
Pause,0.2,Pausing 0.20 ms for ROM write hold time
BlockWrite,0x35,0xE2,0x0502A8010104BF
BlockWrite,0x35,0xE3,0x0400000000E2
Pause,0.2,Pausing 0.20 ms for ROM write hold time
BlockWrite,0x35,0xE2,0x0502A9010104A9
BlockWrite,0x35,0xE3,0x0400000000E2
Pause,0.2,Pausing 0.20 ms for ROM write hold time
BlockWrite,0x35,0xE2,0x0502AA01010493
BlockWrite,0x35,0xE3,0x0400000000E2
Pause,0.2,Pausing 0.20 ms for ROM write hold time
BlockWrite,0x35,0xE2,0x0502AB01010485
BlockWrite,0x35,0xE3,0x040098006E17
Pause,0.2,Pausing 0.20 ms for ROM write hold time
BlockWrite,0x35,0xE2,0x0502AC010104E7
BlockWrite,0x35,0xE3,0x04008C008AAC
Pause,0.2,Pausing 0.20 ms for ROM write hold time
BlockWrite,0x35,0xE2,0x0502AD010104F1
BlockWrite,0x35,0xE3,0x0400550028DE
Pause,0.2,Pausing 0.20 ms for ROM write hold time
BlockWrite,0x35,0xE2,0x0502AE010104CB
BlockWrite,0x35,0xE3,0x04004B3548CF
Pause,0.2,Pausing 0.20 ms for ROM write hold time
BlockWrite,0x35,0xE2,0x0502AF010104DD
BlockWrite,0x35,0xE3,0x04003F000044
Pause,0.2,Pausing 0.20 ms for ROM write hold time
BlockWrite,0x35,0xE2,0x0502B001010468
BlockWrite,0x35,0xE3,0x0400000000E2
Pause,0.2,Pausing 0.20 ms for ROM write hold time
BlockWrite,0x35,0xE2,0x0502B10101047E
BlockWrite,0x35,0xE3,0x0400000000E2
Pause,0.2,Pausing 0.20 ms for ROM write hold time
BlockWrite,0x35,0xE2,0x0502B201010444
BlockWrite,0x35,0xE3,0x0400000000E2
Pause,0.2,Pausing 0.20 ms for ROM write hold time
BlockWrite,0x35,0xE2,0x0502B301010452
BlockWrite,0x35,0xE3,0x0400000000E2
Pause,0.2,Pausing 0.20 ms for ROM write hold time
BlockWrite,0x35,0xE2,0x0502B401010430
BlockWrite,0x35,0xE3,0x0402375A19F8
Pause,0.2,Pausing 0.20 ms for ROM write hold time
BlockWrite,0x35,0xE2,0x0502B501010426
BlockWrite,0x35,0xE3,0x04000B3F2BE5
Pause,0.2,Pausing 0.20 ms for ROM write hold time
BlockWrite,0x35,0xE2,0x0502B60101041C
BlockWrite,0x35,0xE3,0x0400000F37A4
Pause,0.2,Pausing 0.20 ms for ROM write hold time
Comment,Verifying data flash

Comment,Writing data flash in 4 byte chunks ...
BlockWrite,0x35,0xE2,0x0502000001049B
BlockWrite,0x35,0xE3,0x04064D46521D

Comment,"Verify at Addr=0x018800, Data=0x064D46525F4944000000000000000000"
BlockWrite,0x35,0xE2,0x050200001001C2
BlockRead,0x35,0xE3,0x10064D46525F4944000000000000000000
Comment,"Verify at Addr=0x018810, Data=0x000000094D46525F4D4F44454C000000"
BlockWrite,0x35,0xE2,0x050210001001A5
BlockRead,0x35,0xE3,0x10000000094D46525F4D4F44454C000000
Comment,"Verify at Addr=0x018820, Data=0x0C4D46525F5245564953494F4E0C4D46"
BlockWrite,0x35,0xE2,0x0502200010010C
BlockRead,0x35,0xE3,0x100C4D46525F5245564953494F4E0C4D46
Comment,"Verify at Addr=0x018830, Data=0x525F4C4F434154494F4E0659594D4D44"
BlockWrite,0x35,0xE2,0x0502300010016B
BlockRead,0x35,0xE3,0x10525F4C4F434154494F4E0659594D4D44
Comment,"Verify at Addr=0x018840, Data=0x44063030303030300000000000000000"
BlockWrite,0x35,0xE2,0x05024000100159
BlockRead,0x35,0xE3,0x1044063030303030300000000000000000
Comment,"Verify at Addr=0x018850, Data=0x0900410000000000000000000000FFFF"
BlockWrite,0x35,0xE2,0x0502500010013E
BlockRead,0x35,0xE3,0x100900410000000000000000000000FFFF
Comment,"Verify at Addr=0x018860, Data=0xFFFFFFFFFFFF3B3B3B3B3B3B3B3B3BFF"
BlockWrite,0x35,0xE2,0x05026000100197
BlockRead,0x35,0xE3,0x10FFFFFFFFFFFF3B3B3B3B3B3B3B3B3BFF
Comment,"Verify at Addr=0x018870, Data=0xFFFFFFFFFFFF00000000000000000000"
BlockWrite,0x35,0xE2,0x050270001001F0
BlockRead,0x35,0xE3,0x10FFFFFFFFFFFF00000000000000000000
Comment,"Verify at Addr=0x018880, Data=0x00000000000000000000000000000000"
BlockWrite,0x35,0xE2,0x050280001001F3
BlockRead,0x35,0xE3,0x1000000000000000000000000000000000
Comment,"Verify at Addr=0x018890, Data=0x00000000000000000000000000000000"
BlockWrite,0x35,0xE2,0x05029000100194
BlockRead,0x35,0xE3,0x1000000000000000000000000000000000
Comment,"Verify at Addr=0x0188A0, Data=0x00000000000000000000000000000000"
BlockWrite,0x35,0xE2,0x0502A00010013D
BlockRead,0x35,0xE3,0x1000000000000000000000000000000000
Comment,"Verify at Addr=0x0188B0, Data=0x00000000000000000000000000000000"
BlockWrite,0x35,0xE2,0x0502B00010015A
BlockRead,0x35,0xE3,0x1000000000000000000000000000000000
Comment,"Verify at Addr=0x0188C0, Data=0x00000000000000000000000000000000"
BlockWrite,0x35,0xE2,0x0502C000100168
BlockRead,0x35,0xE3,0x1000000000000000000000000000000000
Comment,"Verify at Addr=0x0188D0, Data=0x00000000000000000000000000000000"
BlockWrite,0x35,0xE2,0x0502D00010010F
BlockRead,0x35,0xE3,0x1000000000000000000000000000000000
Comment,"Verify at Addr=0x0188E0, Data=0x00000000000000000000000000000000"
BlockWrite,0x35,0xE2,0x0502E0001001A6
BlockRead,0x35,0xE3,0x1000000000000000000000000000000000
Comment,"Verify at Addr=0x0188F0, Data=0x00000000000000000000000000000000"
BlockWrite,0x35,0xE2,0x0502F0001001C1
BlockRead,0x35,0xE3,0x1000000000000000000000000000000000
Comment,"Verify at Addr=0x018900, Data=0x00000000B66E00000000000000000000"
BlockWrite,0x35,0xE2,0x050200011001A9
BlockRead,0x35,0xE3,0x1000000000B66E00000000000000000000
Comment,"Verify at Addr=0x018910, Data=0x00000000E02000000000000000000000"
BlockWrite,0x35,0xE2,0x050210011001CE
BlockRead,0x35,0xE3,0x1000000000E02000000000000000000000
Comment,"Verify at Addr=0x018920, Data=0x00000000808000000000000000000000"
BlockWrite,0x35,0xE2,0x05022001100167
BlockRead,0x35,0xE3,0x1000000000808000000000000000000000
Comment,"Verify at Addr=0x018930, Data=0x00000000000000000000000000000000"
BlockWrite,0x35,0xE2,0x05023001100100
BlockRead,0x35,0xE3,0x1000000000000000000000000000000000
Comment,"Verify at Addr=0x018940, Data=0x00000000000000000000000000000000"
BlockWrite,0x35,0xE2,0x05024001100132
BlockRead,0x35,0xE3,0x1000000000000000000000000000000000
Comment,"Verify at Addr=0x018950, Data=0x00000000838686830000000000000000"
BlockWrite,0x35,0xE2,0x05025001100155
BlockRead,0x35,0xE3,0x1000000000838686830000000000000000
Comment,"Verify at Addr=0x018960, Data=0x00000000000000000000000000000000"
BlockWrite,0x35,0xE2,0x050260011001FC
BlockRead,0x35,0xE3,0x1000000000000000000000000000000000
Comment,"Verify at Addr=0x018970, Data=0x000000000A0000000000000000000000"
BlockWrite,0x35,0xE2,0x0502700110019B
BlockRead,0x35,0xE3,0x10000000000A0000000000000000000000
Comment,"Verify at Addr=0x018980, Data=0x00000000000000000000000000000000"
BlockWrite,0x35,0xE2,0x05028001100198
BlockRead,0x35,0xE3,0x1000000000000000000000000000000000
Comment,"Verify at Addr=0x018990, Data=0x00000000000000000000000000000000"
BlockWrite,0x35,0xE2,0x050290011001FF
BlockRead,0x35,0xE3,0x1000000000000000000000000000000000
Comment,"Verify at Addr=0x0189A0, Data=0x00000000000000000000000000000000"
BlockWrite,0x35,0xE2,0x0502A001100156
BlockRead,0x35,0xE3,0x1000000000000000000000000000000000
Comment,"Verify at Addr=0x0189B0, Data=0x00000000010203040506070809000000"
BlockWrite,0x35,0xE2,0x0502B001100131
BlockRead,0x35,0xE3,0x1000000000010203040506070809000000
Comment,"Verify at Addr=0x0189C0, Data=0x00000000141414141414141414000000"
BlockWrite,0x35,0xE2,0x0502C001100103
BlockRead,0x35,0xE3,0x1000000000141414141414141414000000
Comment,"Verify at Addr=0x0189D0, Data=0x00000000F2F3F4F6F4F4F4F4F4000000"
BlockWrite,0x35,0xE2,0x0502D001100164
BlockRead,0x35,0xE3,0x1000000000F2F3F4F6F4F4F4F4F4000000
Comment,"Verify at Addr=0x0189E0, Data=0x00000000000000000000000000000000"
BlockWrite,0x35,0xE2,0x0502E0011001CD
BlockRead,0x35,0xE3,0x1000000000000000000000000000000000
Comment,"Verify at Addr=0x0189F0, Data=0x00000000000000000000000000000000"
BlockWrite,0x35,0xE2,0x0502F0011001AA
BlockRead,0x35,0xE3,0x1000000000000000000000000000000000
Comment,"Verify at Addr=0x018A00, Data=0x00000000000000000000000000000000"
BlockWrite,0x35,0xE2,0x05020002100114
BlockRead,0x35,0xE3,0x1000000000000000000000000000000000
Comment,"Verify at Addr=0x018A10, Data=0x00000000000000000000000000000000"
BlockWrite,0x35,0xE2,0x05021002100173
BlockRead,0x35,0xE3,0x1000000000000000000000000000000000
Comment,"Verify at Addr=0x018A20, Data=0x00000000000000000000000000000000"
BlockWrite,0x35,0xE2,0x050220021001DA
BlockRead,0x35,0xE3,0x1000000000000000000000000000000000
Comment,"Verify at Addr=0x018A30, Data=0x00000000366630F62CE128CD00000000"
BlockWrite,0x35,0xE2,0x050230021001BD
BlockRead,0x35,0xE3,0x1000000000366630F62CE128CD00000000
Comment,"Verify at Addr=0x018A40, Data=0x00002CE1000000000000000000000000"
BlockWrite,0x35,0xE2,0x0502400210018F
BlockRead,0x35,0xE3,0x1000002CE1000000000000000000000000
Comment,"Verify at Addr=0x018A50, Data=0x00000000399A33D72F852B3300000000"
BlockWrite,0x35,0xE2,0x050250021001E8
BlockRead,0x35,0xE3,0x1000000000399A33D72F852B3300000000
Comment,"Verify at Addr=0x018A60, Data=0x00002F85000000000000000000000000"
BlockWrite,0x35,0xE2,0x05026002100141
BlockRead,0x35,0xE3,0x1000002F85000000000000000000000000
Comment,"Verify at Addr=0x018A70, Data=0x00000000000000000000000000000000"
BlockWrite,0x35,0xE2,0x05027002100126
BlockRead,0x35,0xE3,0x1000000000000000000000000000000000
Comment,"Verify at Addr=0x018A80, Data=0x00000000000000000000000000000000"
BlockWrite,0x35,0xE2,0x05028002100125
BlockRead,0x35,0xE3,0x1000000000000000000000000000000000
Comment,"Verify at Addr=0x018A90, Data=0x000000007FFF7FFF7FFF7FFF7FFF7FFF"
BlockWrite,0x35,0xE2,0x05029002100142
BlockRead,0x35,0xE3,0x10000000007FFF7FFF7FFF7FFF7FFF7FFF
Comment,"Verify at Addr=0x018AA0, Data=0x7FFF7FFF7FFF00000000000000000000"
BlockWrite,0x35,0xE2,0x0502A0021001EB
BlockRead,0x35,0xE3,0x107FFF7FFF7FFF00000000000000000000
Comment,"Verify at Addr=0x018AB0, Data=0x00000000000000000000000000000000"
BlockWrite,0x35,0xE2,0x0502B00210018C
BlockRead,0x35,0xE3,0x1000000000000000000000000000000000
Comment,"Verify at Addr=0x018AC0, Data=0x00000000000000000000000000000000"
BlockWrite,0x35,0xE2,0x0502C0021001BE
BlockRead,0x35,0xE3,0x1000000000000000000000000000000000
Comment,"Verify at Addr=0x018AD0, Data=0x00000000000000000000000000000000"
BlockWrite,0x35,0xE2,0x0502D0021001D9
BlockRead,0x35,0xE3,0x1000000000000000000000000000000000
Comment,"Verify at Addr=0x018AE0, Data=0x00000000000000000000000000000000"
BlockWrite,0x35,0xE2,0x0502E002100170
BlockRead,0x35,0xE3,0x1000000000000000000000000000000000
Comment,"Verify at Addr=0x018AF0, Data=0x00000000000000000000000000000000"
BlockWrite,0x35,0xE2,0x0502F002100117
BlockRead,0x35,0xE3,0x1000000000000000000000000000000000
Comment,"Verify at Addr=0x018B00, Data=0x00000000000000000000000000000000"
BlockWrite,0x35,0xE2,0x0502000310017F
BlockRead,0x35,0xE3,0x1000000000000000000000000000000000
Comment,"Verify at Addr=0x018B10, Data=0x000000004000399A34CD300000000000"
BlockWrite,0x35,0xE2,0x05021003100118
BlockRead,0x35,0xE3,0x10000000004000399A34CD300000000000
Comment,"Verify at Addr=0x018B20, Data=0x000034CD000000000000000000000000"
BlockWrite,0x35,0xE2,0x050220031001B1
BlockRead,0x35,0xE3,0x10000034CD000000000000000000000000
Comment,"Verify at Addr=0x018B30, Data=0x0000000043333C7B3771326600000000"
BlockWrite,0x35,0xE2,0x050230031001D6
BlockRead,0x35,0xE3,0x100000000043333C7B3771326600000000
Comment,"Verify at Addr=0x018B40, Data=0x00003771000000000000000000000000"
BlockWrite,0x35,0xE2,0x050240031001E4
BlockRead,0x35,0xE3,0x1000003771000000000000000000000000
Comment,"Verify at Addr=0x018B50, Data=0x000000003CCD36B832292D9A00000000"
BlockWrite,0x35,0xE2,0x05025003100183
BlockRead,0x35,0xE3,0x10000000003CCD36B832292D9A00000000
Comment,"Verify at Addr=0x018B60, Data=0x00003229000000000000000000000000"
BlockWrite,0x35,0xE2,0x0502600310012A
BlockRead,0x35,0xE3,0x1000003229000000000000000000000000
Comment,"Verify at Addr=0x018B70, Data=0x0000000043333C7B3771373300000000"
BlockWrite,0x35,0xE2,0x0502700310014D
BlockRead,0x35,0xE3,0x100000000043333C7B3771373300000000
Comment,"Verify at Addr=0x018B80, Data=0x00003CB8000000000000000000000000"
BlockWrite,0x35,0xE2,0x0502800310014E
BlockRead,0x35,0xE3,0x1000003CB8000000000000000000000000
Comment,"Verify at Addr=0x018B90, Data=0x0000000043333C7B377134CD00000000"
BlockWrite,0x35,0xE2,0x05029003100129
BlockRead,0x35,0xE3,0x100000000043333C7B377134CD00000000
Comment,"Verify at Addr=0x018BA0, Data=0x00003A14000000000000000000000000"
BlockWrite,0x35,0xE2,0x0502A003100180
BlockRead,0x35,0xE3,0x1000003A14000000000000000000000000
Comment,"Verify at Addr=0x018BB0, Data=0x0000000010001000080002AC10001000"
BlockWrite,0x35,0xE2,0x0502B0031001E7
BlockRead,0x35,0xE3,0x100000000010001000080002AC10001000
Comment,"Verify at Addr=0x018BC0, Data=0x10000800100000000000000000000000"
BlockWrite,0x35,0xE2,0x0502C0031001D5
BlockRead,0x35,0xE3,0x1010000800100000000000000000000000
Comment,"Verify at Addr=0x018BD0, Data=0x000000003CCD36B8322928CD00000000"
BlockWrite,0x35,0xE2,0x0502D0031001B2
BlockRead,0x35,0xE3,0x10000000003CCD36B8322928CD00000000
Comment,"Verify at Addr=0x018BE0, Data=0x00002CE1000000000000000000000000"
BlockWrite,0x35,0xE2,0x0502E00310011B
BlockRead,0x35,0xE3,0x1000002CE1000000000000000000000000
Comment,"Verify at Addr=0x018BF0, Data=0x000000003CCD36B832292B3300000000"
BlockWrite,0x35,0xE2,0x0502F00310017C
BlockRead,0x35,0xE3,0x10000000003CCD36B832292B3300000000
Comment,"Verify at Addr=0x018C00, Data=0x00002F85000000000000000000000000"
BlockWrite,0x35,0xE2,0x05020004100169
BlockRead,0x35,0xE3,0x1000002F85000000000000000000000000
Comment,"Verify at Addr=0x018C10, Data=0x00000000960000000000000800020000"
BlockWrite,0x35,0xE2,0x0502100410010E
BlockRead,0x35,0xE3,0x1000000000960000000000000800020000
Comment,"Verify at Addr=0x018C20, Data=0x9E0000000000000100040000A6000000"
BlockWrite,0x35,0xE2,0x050220041001A7
BlockRead,0x35,0xE3,0x109E0000000000000100040000A6000000
Comment,"Verify at Addr=0x018C30, Data=0x0000000200000000A800000000000080"
BlockWrite,0x35,0xE2,0x050230041001C0
BlockRead,0x35,0xE3,0x100000000200000000A800000000000080
Comment,"Verify at Addr=0x018C40, Data=0x000701F7000000000000000000000000"
BlockWrite,0x35,0xE2,0x050240041001F2
BlockRead,0x35,0xE3,0x10000701F7000000000000000000000000
Comment,"Verify at Addr=0x018C50, Data=0x00000000000000800000000000000000"
BlockWrite,0x35,0xE2,0x05025004100195
BlockRead,0x35,0xE3,0x1000000000000000800000000000000000
Comment,"Verify at Addr=0x018C60, Data=0x00000000000000000000000000000000"
BlockWrite,0x35,0xE2,0x0502600410013C
BlockRead,0x35,0xE3,0x1000000000000000000000000000000000
Comment,"Verify at Addr=0x018C70, Data=0x00000000000000000000000000000000"
BlockWrite,0x35,0xE2,0x0502700410015B
BlockRead,0x35,0xE3,0x1000000000000000000000000000000000
Comment,"Verify at Addr=0x018C80, Data=0x00000000000000000000000000000000"
BlockWrite,0x35,0xE2,0x05028004100158
BlockRead,0x35,0xE3,0x1000000000000000000000000000000000
Comment,"Verify at Addr=0x018C90, Data=0x00000000000000000000000000000000"
BlockWrite,0x35,0xE2,0x0502900410013F
BlockRead,0x35,0xE3,0x1000000000000000000000000000000000
Comment,"Verify at Addr=0x018CA0, Data=0x00000000000000000000000000000000"
BlockWrite,0x35,0xE2,0x0502A004100196
BlockRead,0x35,0xE3,0x1000000000000000000000000000000000
Comment,"Verify at Addr=0x018CB0, Data=0x00000000000000000000000000000000"
BlockWrite,0x35,0xE2,0x0502B0041001F1
BlockRead,0x35,0xE3,0x1000000000000000000000000000000000
Comment,"Verify at Addr=0x018CC0, Data=0x00000000000000000000000000000000"
BlockWrite,0x35,0xE2,0x0502C0041001C3
BlockRead,0x35,0xE3,0x1000000000000000000000000000000000
Comment,"Verify at Addr=0x018CD0, Data=0x00000000008F0000008F0000008F0000"
BlockWrite,0x35,0xE2,0x0502D0041001A4
BlockRead,0x35,0xE3,0x1000000000008F0000008F0000008F0000
Comment,"Verify at Addr=0x018CE0, Data=0x008F0000000400000004000000040000"
BlockWrite,0x35,0xE2,0x0502E00410010D
BlockRead,0x35,0xE3,0x10008F0000000400000004000000040000
Comment,"Verify at Addr=0x018CF0, Data=0x00040000000000000000000000000000"
BlockWrite,0x35,0xE2,0x0502F00410016A
BlockRead,0x35,0xE3,0x1000040000000000000000000000000000
Comment,"Verify at Addr=0x018D00, Data=0x00000000000000000000000000000000"
BlockWrite,0x35,0xE2,0x05020005100102
BlockRead,0x35,0xE3,0x1000000000000000000000000000000000
Comment,"Verify at Addr=0x018D10, Data=0x00000000000000000000000000000000"
BlockWrite,0x35,0xE2,0x05021005100165
BlockRead,0x35,0xE3,0x1000000000000000000000000000000000
Comment,"Verify at Addr=0x018D20, Data=0x00000000000000000000000000000000"
BlockWrite,0x35,0xE2,0x050220051001CC
BlockRead,0x35,0xE3,0x1000000000000000000000000000000000
Comment,"Verify at Addr=0x018D30, Data=0x00000000000000000000000000000000"
BlockWrite,0x35,0xE2,0x050230051001AB
BlockRead,0x35,0xE3,0x1000000000000000000000000000000000
Comment,"Verify at Addr=0x018D40, Data=0x00000000000000000000000000000000"
BlockWrite,0x35,0xE2,0x05024005100199
BlockRead,0x35,0xE3,0x1000000000000000000000000000000000
Comment,"Verify at Addr=0x018D50, Data=0x00000000000000000000000000000000"
BlockWrite,0x35,0xE2,0x050250051001FE
BlockRead,0x35,0xE3,0x1000000000000000000000000000000000
Comment,"Verify at Addr=0x018D60, Data=0x00000000000000000000000000000000"
BlockWrite,0x35,0xE2,0x05026005100157
BlockRead,0x35,0xE3,0x1000000000000000000000000000000000
Comment,"Verify at Addr=0x018D70, Data=0x00000000000000000000000000000000"
BlockWrite,0x35,0xE2,0x05027005100130
BlockRead,0x35,0xE3,0x1000000000000000000000000000000000
Comment,"Verify at Addr=0x018D80, Data=0x00000000000000000000000000000000"
BlockWrite,0x35,0xE2,0x05028005100133
BlockRead,0x35,0xE3,0x1000000000000000000000000000000000
Comment,"Verify at Addr=0x018D90, Data=0x00000000000000000000000000000000"
BlockWrite,0x35,0xE2,0x05029005100154
BlockRead,0x35,0xE3,0x1000000000000000000000000000000000
Comment,"Verify at Addr=0x018DA0, Data=0x00000000000000000000000000000000"
BlockWrite,0x35,0xE2,0x0502A0051001FD
BlockRead,0x35,0xE3,0x1000000000000000000000000000000000
Comment,"Verify at Addr=0x018DB0, Data=0x00000000000000000000000000000000"
BlockWrite,0x35,0xE2,0x0502B00510019A
BlockRead,0x35,0xE3,0x1000000000000000000000000000000000
Comment,"Verify at Addr=0x018DC0, Data=0x00000000000000000000000000000000"
BlockWrite,0x35,0xE2,0x0502C0051001A8
BlockRead,0x35,0xE3,0x1000000000000000000000000000000000
Comment,"Verify at Addr=0x018DD0, Data=0x00000000000064BAFFFFFFFFFFFFFFFF"
BlockWrite,0x35,0xE2,0x0502D0051001CF
BlockRead,0x35,0xE3,0x1000000000000064BAFFFFFFFFFFFFFFFF
Comment,"Verify at Addr=0x018DE0, Data=0x01000000000001010100010000000000"
BlockWrite,0x35,0xE2,0x0502E005100166
BlockRead,0x35,0xE3,0x1001000000000001010100010000000000
Comment,"Verify at Addr=0x018DF0, Data=0x0000040403000000000D001200000000"
BlockWrite,0x35,0xE2,0x0502F005100101
BlockRead,0x35,0xE3,0x100000040403000000000D001200000000
Comment,"Verify at Addr=0x018E00, Data=0x00000000000000000000000000000000"
BlockWrite,0x35,0xE2,0x050200061001BF
BlockRead,0x35,0xE3,0x1000000000000000000000000000000000
Comment,"Verify at Addr=0x018E10, Data=0x000000000000000000000000023758E9"
BlockWrite,0x35,0xE2,0x050210061001D8
BlockRead,0x35,0xE3,0x10000000000000000000000000023758E9
Comment,"Verify at Addr=0x018E20, Data=0x840B3F2B023758E9830B3F2B023758E9"
BlockWrite,0x35,0xE2,0x05022006100171
BlockRead,0x35,0xE3,0x10840B3F2B023758E9830B3F2B023758E9
Comment,"Verify at Addr=0x018E30, Data=0x828B3F2B023758E9820B3F2B00000000"
BlockWrite,0x35,0xE2,0x05023006100116
BlockRead,0x35,0xE3,0x10828B3F2B023758E9820B3F2B00000000
Comment,"Verify at Addr=0x018E40, Data=0x00000000000000000000000000000000"
BlockWrite,0x35,0xE2,0x05024006100124
BlockRead,0x35,0xE3,0x1000000000000000000000000000000000
Comment,"Verify at Addr=0x018E50, Data=0x00000000000000000000000000000000"
BlockWrite,0x35,0xE2,0x05025006100143
BlockRead,0x35,0xE3,0x1000000000000000000000000000000000
Comment,"Verify at Addr=0x018E60, Data=0x00000000000000000000000000000000"
BlockWrite,0x35,0xE2,0x050260061001EA
BlockRead,0x35,0xE3,0x1000000000000000000000000000000000
Comment,"Verify at Addr=0x018E70, Data=0x00000000000000000000000000000000"
BlockWrite,0x35,0xE2,0x0502700610018D
BlockRead,0x35,0xE3,0x1000000000000000000000000000000000
Comment,"Verify at Addr=0x018E80, Data=0x00000000000000000000000000000000"
BlockWrite,0x35,0xE2,0x0502800610018E
BlockRead,0x35,0xE3,0x1000000000000000000000000000000000
Comment,"Verify at Addr=0x018E90, Data=0x00000000000000000000000000000000"
BlockWrite,0x35,0xE2,0x050290061001E9
BlockRead,0x35,0xE3,0x1000000000000000000000000000000000
Comment,"Verify at Addr=0x018EA0, Data=0x0000000000000000000000000098006E"
BlockWrite,0x35,0xE2,0x0502A006100140
BlockRead,0x35,0xE3,0x100000000000000000000000000098006E
Comment,"Verify at Addr=0x018EB0, Data=0x008C008A00550028004B3548003F0000"
BlockWrite,0x35,0xE2,0x0502B006100127
BlockRead,0x35,0xE3,0x10008C008A00550028004B3548003F0000
Comment,"Verify at Addr=0x018EC0, Data=0x00000000000000000000000000000000"
BlockWrite,0x35,0xE2,0x0502C006100115
BlockRead,0x35,0xE3,0x1000000000000000000000000000000000
Comment,"Verify at Addr=0x018ED0, Data=0x02375A19000B3F2B00000F37FFFFFFFF"
BlockWrite,0x35,0xE2,0x0502D006100172
BlockRead,0x35,0xE3,0x1002375A19000B3F2B00000F37FFFFFFFF
Comment,"Verify at Addr=0x018EE0, Data=0xFFFFFFFFFFFFFFFFFFFFFFFFFFFFFFFF"
BlockWrite,0x35,0xE2,0x0502E0061001DB
BlockRead,0x35,0xE3,0x10FFFFFFFFFFFFFFFFFFFFFFFFFFFFFFFF
Comment,"Verify at Addr=0x018EF0, Data=0xFFFFFFFFFFFFFFFFFFFFFFFFFFFFFFFF"
BlockWrite,0x35,0xE2,0x0502F0061001BC
BlockRead,0x35,0xE3,0x10FFFFFFFFFFFFFFFFFFFFFFFFFFFFFFFF
Comment,"Verify at Addr=0x018F00, Data=0xFFFFFFFFFFFFFFFFFFFFFFFFFFFFFFFF"
BlockWrite,0x35,0xE2,0x050200071001D4
BlockRead,0x35,0xE3,0x10FFFFFFFFFFFFFFFFFFFFFFFFFFFFFFFF
Comment,"Verify at Addr=0x018F10, Data=0xFFFFFFFFFFFFFFFFFFFFFFFFFFFFFFFF"
BlockWrite,0x35,0xE2,0x050210071001B3
BlockRead,0x35,0xE3,0x10FFFFFFFFFFFFFFFFFFFFFFFFFFFFFFFF
Comment,"Verify at Addr=0x018F20, Data=0xFFFFFFFFFFFFFFFFFFFFFFFFFFFFFFFF"
BlockWrite,0x35,0xE2,0x0502200710011A
BlockRead,0x35,0xE3,0x10FFFFFFFFFFFFFFFFFFFFFFFFFFFFFFFF
Comment,"Verify at Addr=0x018F30, Data=0xFFFFFFFFFFFFFFFFFFFFFFFFFFFFFFFF"
BlockWrite,0x35,0xE2,0x0502300710017D
BlockRead,0x35,0xE3,0x10FFFFFFFFFFFFFFFFFFFFFFFFFFFFFFFF
Comment,"Verify at Addr=0x018F40, Data=0xFFFFFFFFFFFFFFFFFFFFFFFFFFFFFFFF"
BlockWrite,0x35,0xE2,0x0502400710014F
BlockRead,0x35,0xE3,0x10FFFFFFFFFFFFFFFFFFFFFFFFFFFFFFFF
Comment,"Verify at Addr=0x018F50, Data=0xFFFFFFFFFFFFFFFFFFFFFFFFFFFFFFFF"
BlockWrite,0x35,0xE2,0x05025007100128
BlockRead,0x35,0xE3,0x10FFFFFFFFFFFFFFFFFFFFFFFFFFFFFFFF
Comment,"Verify at Addr=0x018F60, Data=0xFFFFFFFFFFFFFFFFFFFFFFFFFFFFFFFF"
BlockWrite,0x35,0xE2,0x05026007100181
BlockRead,0x35,0xE3,0x10FFFFFFFFFFFFFFFFFFFFFFFFFFFFFFFF
Comment,"Verify at Addr=0x018F70, Data=0xFFFFFFFFFFFFFFFFFFFFFFFFFFFFFFFF"
BlockWrite,0x35,0xE2,0x050270071001E6
BlockRead,0x35,0xE3,0x10FFFFFFFFFFFFFFFFFFFFFFFFFFFFFFFF
Comment,"Verify at Addr=0x018F80, Data=0xFFFFFFFFFFFFFFFFFFFFFFFFFFFFFFFF"
BlockWrite,0x35,0xE2,0x050280071001E5
BlockRead,0x35,0xE3,0x10FFFFFFFFFFFFFFFFFFFFFFFFFFFFFFFF
Comment,"Verify at Addr=0x018F90, Data=0xFFFFFFFFFFFFFFFFFFFFFFFFFFFFFFFF"
BlockWrite,0x35,0xE2,0x05029007100182
BlockRead,0x35,0xE3,0x10FFFFFFFFFFFFFFFFFFFFFFFFFFFFFFFF
Comment,"Verify at Addr=0x018FA0, Data=0xFFFFFFFFFFFFFFFFFFFFFFFFFFFFFFFF"
BlockWrite,0x35,0xE2,0x0502A00710012B
BlockRead,0x35,0xE3,0x10FFFFFFFFFFFFFFFFFFFFFFFFFFFFFFFF
Comment,"Verify at Addr=0x018FB0, Data=0xFFFFFFFFFFFFFFFFFFFFFFFFFFFFFFFF"
BlockWrite,0x35,0xE2,0x0502B00710014C
BlockRead,0x35,0xE3,0x10FFFFFFFFFFFFFFFFFFFFFFFFFFFFFFFF
Comment,"Verify at Addr=0x018FC0, Data=0xFFFFFFFFFFFFFFFFFFFFFFFFFFFFFFFF"
BlockWrite,0x35,0xE2,0x0502C00710017E
BlockRead,0x35,0xE3,0x10FFFFFFFFFFFFFFFFFFFFFFFFFFFFFFFF
Comment,"Verify at Addr=0x018FD0, Data=0xFFFFFFFFFFFFFFFFFFFFFFFFFFFFFFFF"
BlockWrite,0x35,0xE2,0x0502D007100119
BlockRead,0x35,0xE3,0x10FFFFFFFFFFFFFFFFFFFFFFFFFFFFFFFF
Comment,"Verify at Addr=0x018FE0, Data=0xFFFFFFFFFFFFFFFFFFFFFFFFFFFFFFFF"
BlockWrite,0x35,0xE2,0x0502E0071001B0
BlockRead,0x35,0xE3,0x10FFFFFFFFFFFFFFFFFFFFFFFFFFFFFFFF
Comment,"Verify at Addr=0x018FF0, Data=0xFFFFFFFFFFFFFFFFFFFFFFFFFFFFFFFF"
BlockWrite,0x35,0xE2,0x0502F0071001D7
BlockRead,0x35,0xE3,0x10FFFFFFFFFFFFFFFFFFFFFFFFFFFFFFFF
Comment,Resetting the device
SendByte,0x35,0xDB
Pause,1500,Waiting for UCD90160 program to startup
Comment,"Verifying DEVICE_ID matches expected firmware [""UCD90160|2.3.4.0000|110603""]"
BlockRead,0x35,0xFD,0x1B55434439303136307C322E332E342E303030307C31313036303300
Comment,Clearing data flash logs
WriteByte,0x35,0x00,0xFFB1
BlockWrite,0x35,0xED,0x0200003D
Pause,1500,"Pausing 1,500.00 ms for LOGGED_PAGE_PEAKS flash write"
BlockWrite,0x35,0xEA,0x12000000000000000000000000000000000000FD
Pause,1000,"Pausing 1,000.00 ms for LOGGED_FAULTS flash write"
